! Created with skrf (http://scikit-rf.org).
# Hz S RI R 50.0 
!freq ReS11 ImS11
1000000.0 -0.009229843 -0.000167457
1024500.0 -0.009093959 -0.000205815
1049000.0 -0.009167534 -0.000146547
1073500.0 -0.009109203 -0.00011385
1098000.0 -0.009133543 -9.5107e-05
1122500.0 -0.009132619 -0.000162993
1147000.0 -0.009116926 -8.2463e-05
1171500.0 -0.009155564 -0.000169057
1196000.0 -0.009136857 -0.000129594
1220500.0 -0.009143808 -0.000126096
1245000.0 -0.009121624 -0.000142306
1269500.0 -0.009076561 -9.4087e-05
1294000.0 -0.009171347 -0.000200834
1318500.0 -0.009113017 -0.000179916
1343000.0 -0.009171483 -0.000163656
1367500.0 -0.009148795 -0.000218435
1392000.0 -0.009129898 -0.000159872
1416500.0 -0.009107123 -0.000138792
1441000.0 -0.009118525 -0.00016887
1465500.0 -0.009086425 -0.000164519
1490000.0 -0.009139348 -0.000134562
1514500.0 -0.009121758 -0.000159928
1539000.0 -0.009142395 -0.000152709
1563500.0 -0.009211754 -0.0001313
1588000.0 -0.009156425 -0.000268924
1612500.0 -0.009173839 -0.000181526
1637000.0 -0.009186728 -0.000135544
1661500.0 -0.009167166 -0.00023928
1686000.0 -0.009151713 -0.000229395
1710500.0 -0.009115459 -0.000217355
1735000.0 -0.009114104 -0.000242366
1759500.0 -0.009147294 -0.000170719
1784000.0 -0.009229857 -0.000207492
1808500.0 -0.009149618 -0.000136133
1833000.0 -0.009224653 -0.000214742
1857500.0 -0.009138833 -0.000153594
1882000.0 -0.009145028 -0.000196907
1906500.0 -0.009136112 -0.000203982
1931000.0 -0.009194195 -0.000237939
1955500.0 -0.009131778 -0.000158598
1980000.0 -0.009135279 -0.000160752
2004500.0 -0.009130719 -0.000269798
2029000.0 -0.009134636 -0.000244753
2053500.0 -0.009143806 -0.000232937
2078000.0 -0.009154825 -0.000217307
2102500.0 -0.009146267 -0.000201084
2127000.0 -0.009149127 -0.000239258
2151500.0 -0.009161235 -0.000239524
2176000.0 -0.00910659 -0.000223852
2200500.0 -0.00921176 -0.000185854
2225000.0 -0.009122029 -0.000203019
2249500.0 -0.009125781 -0.000225844
2274000.0 -0.009087679 -0.000234495
2298500.0 -0.009191198 -0.000270371
2323000.0 -0.009216206 -0.000217877
2347500.0 -0.009092181 -0.000231071
2372000.0 -0.009106732 -0.000251505
2396500.0 -0.009198884 -0.000241598
2421000.0 -0.009174015 -0.000255876
2445500.0 -0.009131105 -0.000262124
2470000.0 -0.009167213 -0.00029827
2494500.0 -0.009151981 -0.000264915
2519000.0 -0.009137357 -0.000255089
2543500.0 -0.009127994 -0.000232767
2568000.0 -0.009151727 -0.000294877
2592500.0 -0.009129025 -0.000275766
2617000.0 -0.009121771 -0.000273646
2641500.0 -0.009159468 -0.00032265
2666000.0 -0.009159334 -0.000277752
2690500.0 -0.009170225 -0.000283755
2715000.0 -0.009149522 -0.000313002
2739500.0 -0.009142807 -0.000244876
2764000.0 -0.00913658 -0.000270616
2788500.0 -0.009177288 -0.000289278
2813000.0 -0.009161963 -0.000292837
2837500.0 -0.009160826 -0.000343009
2862000.0 -0.00916639 -0.000301609
2886500.0 -0.009131028 -0.00031783
2911000.0 -0.009179934 -0.000293799
2935500.0 -0.009144538 -0.000282531
2960000.0 -0.009215236 -0.000269872
2984500.0 -0.009184612 -0.000284721
3009000.0 -0.009149277 -0.000283076
3033500.0 -0.00921028 -0.000337357
3058000.0 -0.009145791 -0.000339931
3082500.0 -0.009125692 -0.000371523
3107000.0 -0.009222034 -0.000415444
3131500.0 -0.009141742 -0.000308811
3156000.0 -0.009138242 -0.000357194
3180500.0 -0.009209414 -0.000384222
3205000.0 -0.009169766 -0.000349724
3229500.0 -0.009167047 -0.000351931
3254000.0 -0.009125563 -0.000333083
3278500.0 -0.009116537 -0.000333282
3303000.0 -0.009142038 -0.000374755
3327500.0 -0.009151023 -0.000336224
3352000.0 -0.009117581 -0.000425583
3376500.0 -0.009162487 -0.000388113
3401000.0 -0.009160209 -0.000346917
3425500.0 -0.009108295 -0.000364572
3450000.0 -0.009144399 -0.000364379
3474500.0 -0.009078808 -0.000401543
3499000.0 -0.009132408 -0.000403782
3523500.0 -0.009199163 -0.000333981
3548000.0 -0.009113702 -0.000360892
3572500.0 -0.009191758 -0.000416575
3597000.0 -0.009153788 -0.000396792
3621500.0 -0.009186527 -0.00036447
3646000.0 -0.009162071 -0.000383427
3670500.0 -0.009148703 -0.000360036
3695000.0 -0.009209341 -0.000408827
3719500.0 -0.009182743 -0.000391729
3744000.0 -0.009199892 -0.00039715
3768500.0 -0.009148401 -0.00037042
3793000.0 -0.009192101 -0.000414935
3817500.0 -0.009154421 -0.000444732
3842000.0 -0.009211386 -0.000435946
3866500.0 -0.009174899 -0.000410807
3891000.0 -0.009176763 -0.000431018
3915500.0 -0.009155355 -0.000450513
3940000.0 -0.009148902 -0.000405977
3964500.0 -0.009157032 -0.000464987
3989000.0 -0.009150247 -0.000389767
4013500.0 -0.00924249 -0.000487454
4038000.0 -0.009194472 -0.000419982
4062500.0 -0.009176881 -0.0004363
4087000.0 -0.00915718 -0.000481214
4111500.0 -0.009117567 -0.000393383
4136000.0 -0.009185517 -0.000417909
4160500.0 -0.00916624 -0.000413216
4185000.0 -0.009147591 -0.000442878
4209500.0 -0.009181055 -0.000527532
4234000.0 -0.009201742 -0.000403005
4258500.0 -0.009213227 -0.000479452
4283000.0 -0.009177686 -0.000483376
4307500.0 -0.009101722 -0.00043615
4332000.0 -0.009197637 -0.000530057
4356500.0 -0.0091302 -0.000516289
4381000.0 -0.009141943 -0.000444781
4405500.0 -0.009145225 -0.000455848
4430000.0 -0.009137257 -0.000501593
4454500.0 -0.009157586 -0.00043973
4479000.0 -0.00914981 -0.000446837
4503500.0 -0.009126299 -0.000452421
4528000.0 -0.009210046 -0.000490813
4552500.0 -0.009196182 -0.000520227
4577000.0 -0.009144091 -0.000462589
4601500.0 -0.009165758 -0.000477323
4626000.0 -0.00920658 -0.000506512
4650500.0 -0.009197097 -0.000491436
4675000.0 -0.009155739 -0.000460007
4699500.0 -0.009126607 -0.000561284
4724000.0 -0.009161195 -0.000512536
4748500.0 -0.009187775 -0.000511271
4773000.0 -0.009188953 -0.0004749
4797500.0 -0.009152842 -0.00052231
4822000.0 -0.009191571 -0.000499326
4846500.0 -0.009108666 -0.000495437
4871000.0 -0.009152995 -0.000553974
4895500.0 -0.009125381 -0.000576571
4920000.0 -0.00919151 -0.000517962
4944500.0 -0.009146891 -0.000496365
4969000.0 -0.009171675 -0.000535822
4993500.0 -0.009159687 -0.000510397
5018000.0 -0.009141963 -0.000494326
5042500.0 -0.009146112 -0.000560971
5067000.0 -0.00923039 -0.000562361
5091500.0 -0.009194496 -0.000548952
5116000.0 -0.009170517 -0.000571813
5140500.0 -0.009170808 -0.000508006
5165000.0 -0.009118367 -0.000472353
5189500.0 -0.009177879 -0.000560799
5214000.0 -0.00916485 -0.000538781
5238500.0 -0.00920704 -0.000568277
5263000.0 -0.009186121 -0.000553642
5287500.0 -0.009147959 -0.000564499
5312000.0 -0.009194235 -0.000569444
5336500.0 -0.009170418 -0.000584822
5361000.0 -0.009192098 -0.000590001
5385500.0 -0.009160191 -0.000561325
5410000.0 -0.009162336 -0.000524029
5434500.0 -0.009139583 -0.000567265
5459000.0 -0.00921521 -0.000575541
5483500.0 -0.009204912 -0.000559173
5508000.0 -0.009167804 -0.000555115
5532500.0 -0.009224211 -0.000604543
5557000.0 -0.009144548 -0.000568017
5581500.0 -0.009090012 -0.000541041
5606000.0 -0.009147211 -0.000548201
5630500.0 -0.009177846 -0.00058051
5655000.0 -0.009133904 -0.000627058
5679500.0 -0.009140789 -0.000574297
5704000.0 -0.009138119 -0.000573796
5728500.0 -0.009144703 -0.000601286
5753000.0 -0.009168751 -0.000586872
5777500.0 -0.009196371 -0.000661846
5802000.0 -0.009202303 -0.000604429
5826500.0 -0.009170256 -0.000632179
5851000.0 -0.009144911 -0.000586332
5875500.0 -0.009150755 -0.000636811
5900000.0 -0.009175642 -0.000553752
5924500.0 -0.009180067 -0.000601977
5949000.0 -0.009184033 -0.000645945
5973500.0 -0.009153953 -0.000614587
5998000.0 -0.009144246 -0.000586795
6022500.0 -0.009193759 -0.000592406
6047000.0 -0.009125236 -0.000548924
6071500.0 -0.009157564 -0.000628645
6096000.0 -0.009146913 -0.000571372
6120500.0 -0.009180216 -0.000611499
6145000.0 -0.009141459 -0.000645045
6169500.0 -0.009172129 -0.000620099
6194000.0 -0.009214899 -0.000627909
6218500.0 -0.009129871 -0.000583398
6243000.0 -0.009221906 -0.000668936
6267500.0 -0.009158941 -0.00060259
6292000.0 -0.009098806 -0.000598234
6316500.0 -0.00916399 -0.000648423
6341000.0 -0.009130192 -0.000653231
6365500.0 -0.009162689 -0.000641013
6390000.0 -0.009183701 -0.000615657
6414500.0 -0.00923653 -0.000638579
6439000.0 -0.009141961 -0.000651961
6463500.0 -0.009209096 -0.000643578
6488000.0 -0.009123545 -0.000643789
6512500.0 -0.009134948 -0.000684117
6537000.0 -0.009145794 -0.000652494
6561500.0 -0.009181595 -0.000675401
6586000.0 -0.009091056 -0.00069819
6610500.0 -0.00910569 -0.000698549
6635000.0 -0.009117759 -0.000691986
6659500.0 -0.009116799 -0.000691009
6684000.0 -0.00918624 -0.000688927
6708500.0 -0.009177496 -0.00066861
6733000.0 -0.009220516 -0.000688338
6757500.0 -0.009132057 -0.000698849
6782000.0 -0.009159343 -0.000711598
6806500.0 -0.009156148 -0.000748064
6831000.0 -0.009144621 -0.000694758
6855500.0 -0.009124311 -0.000717191
6880000.0 -0.009167439 -0.00071401
6904500.0 -0.00917211 -0.000680713
6929000.0 -0.009176887 -0.00078035
6953500.0 -0.009128977 -0.000785043
6978000.0 -0.00913393 -0.000742756
7002500.0 -0.009148793 -0.000704932
7027000.0 -0.009191294 -0.000717796
7051500.0 -0.0091412 -0.000709633
7076000.0 -0.009157018 -0.000748288
7100500.0 -0.009131447 -0.000743442
7125000.0 -0.009152688 -0.00074867
7149500.0 -0.00915374 -0.000781453
7174000.0 -0.009198176 -0.000738024
7198500.0 -0.009174477 -0.000764787
7223000.0 -0.009146285 -0.000740608
7247500.0 -0.009180937 -0.000751193
7272000.0 -0.009113973 -0.000755446
7296500.0 -0.00918161 -0.000759804
7321000.0 -0.009170042 -0.000727304
7345500.0 -0.009141583 -0.000832808
7370000.0 -0.009154984 -0.000749239
7394500.0 -0.009146584 -0.000770984
7419000.0 -0.009209291 -0.000752546
7443500.0 -0.009131235 -0.000743247
7468000.0 -0.009174907 -0.000758078
7492500.0 -0.009192707 -0.000781473
7517000.0 -0.009174331 -0.000754681
7541500.0 -0.009105639 -0.000778361
7566000.0 -0.00909172 -0.000818527
7590500.0 -0.009182974 -0.000746013
7615000.0 -0.009133981 -0.000873533
7639500.0 -0.009151435 -0.000846001
7664000.0 -0.009126151 -0.0008581
7688500.0 -0.009101769 -0.000798398
7713000.0 -0.009155683 -0.000775387
7737500.0 -0.009213725 -0.000814009
7762000.0 -0.009151189 -0.000829497
7786500.0 -0.009168278 -0.000778052
7811000.0 -0.009130518 -0.00082025
7835500.0 -0.009205738 -0.000833771
7860000.0 -0.009136506 -0.000791549
7884500.0 -0.009162076 -0.000838855
7909000.0 -0.009141852 -0.000862489
7933500.0 -0.009153318 -0.000792527
7958000.0 -0.009148812 -0.000806082
7982500.0 -0.00915665 -0.000815613
8007000.0 -0.009162206 -0.000876346
8031500.0 -0.009139801 -0.000877212
8056000.0 -0.009165203 -0.000831622
8080500.0 -0.009109363 -0.000868327
8105000.0 -0.009154917 -0.000877726
8129500.0 -0.009135623 -0.000831023
8154000.0 -0.009159942 -0.000851416
8178500.0 -0.009155441 -0.000865024
8203000.0 -0.009144722 -0.000887407
8227500.0 -0.009144693 -0.000938207
8252000.0 -0.009207869 -0.000869139
8276500.0 -0.009143963 -0.000864111
8301000.0 -0.009166383 -0.000859217
8325500.0 -0.009137746 -0.000977875
8350000.0 -0.009169601 -0.000937725
8374500.0 -0.009184083 -0.000883018
8399000.0 -0.009106322 -0.000852496
8423500.0 -0.009162675 -0.000892765
8448000.0 -0.009189302 -0.000876118
8472500.0 -0.009227749 -0.000862269
8497000.0 -0.009200594 -0.000916323
8521500.0 -0.009246973 -0.000879076
8546000.0 -0.009230175 -0.000920554
8570500.0 -0.009166962 -0.00090561
8595000.0 -0.009203223 -0.0009208
8619500.0 -0.00922086 -0.000893883
8644000.0 -0.009189012 -0.000964472
8668500.0 -0.009162916 -0.000884967
8693000.0 -0.009151106 -0.000974023
8717500.0 -0.009258843 -0.000927773
8742000.0 -0.009141366 -0.000932646
8766500.0 -0.009212525 -0.000919399
8791000.0 -0.009202619 -0.000974128
8815500.0 -0.00922325 -0.000930485
8840000.0 -0.00920579 -0.000936219
8864500.0 -0.00920969 -0.000895639
8889000.0 -0.00916726 -0.000956863
8913500.0 -0.00925136 -0.000964194
8938000.0 -0.009251548 -0.000943472
8962500.0 -0.009182999 -0.001023774
8987000.0 -0.009176556 -0.000925621
9011500.0 -0.009186353 -0.000971828
9036000.0 -0.009203496 -0.001022022
9060500.0 -0.009174417 -0.000930047
9085000.0 -0.009266403 -0.000945263
9109500.0 -0.009171743 -0.000963471
9134000.0 -0.009226536 -0.000951719
9158500.0 -0.009234445 -0.000898154
9183000.0 -0.009234535 -0.000964536
9207500.0 -0.009184716 -0.000950889
9232000.0 -0.00920232 -0.001013256
9256500.0 -0.009182224 -0.000932184
9281000.0 -0.009171702 -0.001017306
9305500.0 -0.009227753 -0.001006386
9330000.0 -0.009198522 -0.000957949
9354500.0 -0.009226141 -0.001046284
9379000.0 -0.009162819 -0.00103742
9403500.0 -0.009158617 -0.000957927
9428000.0 -0.009229009 -0.000973442
9452500.0 -0.009227289 -0.000972834
9477000.0 -0.009193478 -0.001010241
9501500.0 -0.009231773 -0.000994341
9526000.0 -0.009236347 -0.001031057
9550500.0 -0.009192606 -0.000993233
9575000.0 -0.00922169 -0.001038495
9599500.0 -0.009305832 -0.001010675
9624000.0 -0.009204076 -0.00101548
9648500.0 -0.009217206 -0.001051826
9673000.0 -0.009225397 -0.001032878
9697500.0 -0.009201174 -0.001030067
9722000.0 -0.009178116 -0.001031289
9746500.0 -0.009240387 -0.001037753
9771000.0 -0.009171905 -0.001061806
9795500.0 -0.00917647 -0.001063962
9820000.0 -0.009169403 -0.001056119
9844500.0 -0.009140485 -0.001036537
9869000.0 -0.009233954 -0.001063667
9893500.0 -0.009202179 -0.001096879
9918000.0 -0.009167463 -0.001081856
9942500.0 -0.009179286 -0.001032314
9967000.0 -0.009253299 -0.001048398
9991500.0 -0.009247726 -0.001054002
10016000.0 -0.009193428 -0.001099622
10040500.0 -0.009230235 -0.001015836
10065000.0 -0.009212588 -0.00104642
10089500.0 -0.009239765 -0.001029791
10114000.0 -0.009285423 -0.001037597
10138500.0 -0.009237091 -0.001031242
10163000.0 -0.009268451 -0.001119813
10187500.0 -0.009217598 -0.001074782
10212000.0 -0.009206099 -0.001074523
10236500.0 -0.009210058 -0.001087193
10261000.0 -0.00917462 -0.00109312
10285500.0 -0.009268304 -0.001059625
10310000.0 -0.009223828 -0.001092823
10334500.0 -0.009224439 -0.001039612
10359000.0 -0.009298103 -0.001099078
10383500.0 -0.009245367 -0.001032217
10408000.0 -0.009199836 -0.001133897
10432500.0 -0.009192822 -0.001132498
10457000.0 -0.009163754 -0.001111857
10481500.0 -0.009238977 -0.001143776
10506000.0 -0.009250163 -0.001127536
10530500.0 -0.009250679 -0.00113768
10555000.0 -0.009216073 -0.001186347
10579500.0 -0.009200049 -0.001134292
10604000.0 -0.009167197 -0.001181096
10628500.0 -0.00924334 -0.001152305
10653000.0 -0.009224498 -0.001155917
10677500.0 -0.009233566 -0.001192297
10702000.0 -0.009316291 -0.001167711
10726500.0 -0.009235804 -0.001148929
10751000.0 -0.009188019 -0.00114675
10775500.0 -0.009236414 -0.001089952
10800000.0 -0.009224725 -0.001159561
10824500.0 -0.009274642 -0.001128802
10849000.0 -0.009210441 -0.001123613
10873500.0 -0.009229023 -0.001135772
10898000.0 -0.009218284 -0.001197529
10922500.0 -0.009271281 -0.00122174
10947000.0 -0.009205359 -0.001123058
10971500.0 -0.009211444 -0.001220186
10996000.0 -0.009262332 -0.001190314
11020500.0 -0.009264437 -0.001213258
11045000.0 -0.009214439 -0.00122567
11069500.0 -0.009236551 -0.001200372
11094000.0 -0.009219536 -0.001223403
11118500.0 -0.009322163 -0.00118631
11143000.0 -0.009270794 -0.001190489
11167500.0 -0.009261665 -0.001239247
11192000.0 -0.009267828 -0.001134994
11216500.0 -0.009256355 -0.001191068
11241000.0 -0.009247785 -0.001146964
11265500.0 -0.009288414 -0.001163806
11290000.0 -0.009278842 -0.001255205
11314500.0 -0.009273905 -0.00121572
11339000.0 -0.009304919 -0.001138953
11363500.0 -0.009278615 -0.001241086
11388000.0 -0.009250169 -0.001223127
11412500.0 -0.009285539 -0.001266923
11437000.0 -0.009252603 -0.001205389
11461500.0 -0.009261309 -0.001186491
11486000.0 -0.009286635 -0.001273332
11510500.0 -0.009259383 -0.001232914
11535000.0 -0.009265083 -0.001230988
11559500.0 -0.009257054 -0.001242846
11584000.0 -0.00919355 -0.001244037
11608500.0 -0.009303586 -0.001264128
11633000.0 -0.009216807 -0.001282752
11657500.0 -0.009275207 -0.00125502
11682000.0 -0.009243143 -0.001265397
11706500.0 -0.009229614 -0.001261123
11731000.0 -0.009232195 -0.00126747
11755500.0 -0.009311373 -0.00124867
11780000.0 -0.009283067 -0.001202772
11804500.0 -0.009275191 -0.00126334
11829000.0 -0.009257962 -0.001303088
11853500.0 -0.009279341 -0.00124722
11878000.0 -0.009235576 -0.001224255
11902500.0 -0.009276545 -0.001257136
11927000.0 -0.009244396 -0.001242741
11951500.0 -0.009206639 -0.00124299
11976000.0 -0.009295404 -0.001286742
12000500.0 -0.009278828 -0.001334972
12025000.0 -0.009322679 -0.001269378
12049500.0 -0.009207011 -0.001240641
12074000.0 -0.009238303 -0.001291924
12098500.0 -0.009314908 -0.001282965
12123000.0 -0.009260361 -0.001288308
12147500.0 -0.009228504 -0.001264378
12172000.0 -0.009260079 -0.001297999
12196500.0 -0.009287041 -0.001310135
12221000.0 -0.009197559 -0.001287468
12245500.0 -0.009306947 -0.001383293
12270000.0 -0.009250903 -0.001276565
12294500.0 -0.009190294 -0.001321023
12319000.0 -0.009278401 -0.001338907
12343500.0 -0.009214078 -0.001354167
12368000.0 -0.009343425 -0.001371291
12392500.0 -0.009302788 -0.001358199
12417000.0 -0.009291744 -0.00135407
12441500.0 -0.009291847 -0.001384166
12466000.0 -0.009301977 -0.001306792
12490500.0 -0.00921002 -0.001367381
12515000.0 -0.009262305 -0.001314466
12539500.0 -0.009310375 -0.00126443
12564000.0 -0.009249183 -0.001332069
12588500.0 -0.009255549 -0.001369369
12613000.0 -0.009265719 -0.001307832
12637500.0 -0.009270908 -0.001308765
12662000.0 -0.009259003 -0.00134806
12686500.0 -0.009290224 -0.001340149
12711000.0 -0.00933653 -0.001357817
12735500.0 -0.009271184 -0.001301119
12760000.0 -0.009286471 -0.001348711
12784500.0 -0.009260749 -0.001364072
12809000.0 -0.009237163 -0.001365514
12833500.0 -0.009285282 -0.001373196
12858000.0 -0.009294862 -0.001383538
12882500.0 -0.009225384 -0.001376653
12907000.0 -0.009294212 -0.001373304
12931500.0 -0.009290766 -0.001352313
12956000.0 -0.009242969 -0.001344534
12980500.0 -0.009359645 -0.001328641
13005000.0 -0.009287295 -0.001358649
13029500.0 -0.009257923 -0.001361349
13054000.0 -0.009370971 -0.001383752
13078500.0 -0.009268402 -0.001382034
13103000.0 -0.009263005 -0.001354639
13127500.0 -0.00926219 -0.001371509
13152000.0 -0.00930016 -0.001359246
13176500.0 -0.00925377 -0.00137695
13201000.0 -0.009280685 -0.00144523
13225500.0 -0.009279804 -0.00146553
13250000.0 -0.009329041 -0.001401711
13274500.0 -0.009282699 -0.001403723
13299000.0 -0.009290776 -0.001386936
13323500.0 -0.00930876 -0.001353874
13348000.0 -0.009285073 -0.001395509
13372500.0 -0.00926583 -0.00141302
13397000.0 -0.009306992 -0.001405421
13421500.0 -0.009236442 -0.001424889
13446000.0 -0.009284891 -0.001489135
13470500.0 -0.009280153 -0.001391828
13495000.0 -0.009244509 -0.001369943
13519500.0 -0.009258757 -0.00145381
13544000.0 -0.009185079 -0.001365911
13568500.0 -0.009234133 -0.001433459
13593000.0 -0.009312359 -0.001439324
13617500.0 -0.009297877 -0.00137566
13642000.0 -0.009260804 -0.001475313
13666500.0 -0.009281548 -0.001432244
13691000.0 -0.009298984 -0.001449172
13715500.0 -0.009243689 -0.001454327
13740000.0 -0.00929313 -0.00147664
13764500.0 -0.009316143 -0.001467214
13789000.0 -0.009253668 -0.001505527
13813500.0 -0.009292736 -0.001466452
13838000.0 -0.009313545 -0.001452609
13862500.0 -0.009281146 -0.001479616
13887000.0 -0.009288596 -0.001498375
13911500.0 -0.009260703 -0.001482464
13936000.0 -0.009292357 -0.001519506
13960500.0 -0.009221604 -0.001454681
13985000.0 -0.009309358 -0.001475643
14009500.0 -0.009250922 -0.001454523
14034000.0 -0.009305158 -0.001442782
14058500.0 -0.009236482 -0.001488385
14083000.0 -0.009301947 -0.001483128
14107500.0 -0.009261736 -0.001519281
14132000.0 -0.009335966 -0.001488554
14156500.0 -0.009309048 -0.001493183
14181000.0 -0.009281053 -0.001536882
14205500.0 -0.009302157 -0.001478607
14230000.0 -0.00927225 -0.001492345
14254500.0 -0.009298663 -0.001523523
14279000.0 -0.009294466 -0.001537227
14303500.0 -0.009246861 -0.001479153
14328000.0 -0.009324992 -0.001495231
14352500.0 -0.00929207 -0.001521177
14377000.0 -0.00927333 -0.00149375
14401500.0 -0.009354259 -0.001502331
14426000.0 -0.009286993 -0.001517286
14450500.0 -0.009325403 -0.001526053
14475000.0 -0.009285137 -0.001511725
