! Created with skrf (http://scikit-rf.org).
# Hz S RI R 50.0 
!freq ReS11 ImS11
1000000.0 0.58963136 0.001013977
1024500.0 0.589704384 0.001111789
1049000.0 0.589699776 0.000984506
1073500.0 0.589672576 0.00092043
1098000.0 0.589718272 0.000837244
1122500.0 0.589687936 0.000828605
1147000.0 0.589778752 0.000778352
1171500.0 0.589715712 0.000738592
1196000.0 0.589660608 0.000726041
1220500.0 0.589742848 0.000715362
1245000.0 0.589691648 0.000601785
1269500.0 0.58971296 0.000567412
1294000.0 0.589750208 0.000571024
1318500.0 0.589737472 0.000471091
1343000.0 0.58973184 0.000500068
1367500.0 0.589740032 0.0004924
1392000.0 0.589735936 0.00043257
1416500.0 0.58974816 0.000374529
1441000.0 0.589722688 0.000344185
1465500.0 0.58973632 0.000303369
1490000.0 0.589714368 0.000247023
1514500.0 0.5897552 0.000195685
1539000.0 0.589790912 0.000167729
1563500.0 0.589732352 0.000167406
1588000.0 0.589741952 0.000147839
1612500.0 0.589745088 -8.714e-06
1637000.0 0.589736512 3.6384e-05
1661500.0 0.589707264 -6.1247e-05
1686000.0 0.58975648 -5.5971e-05
1710500.0 0.58975552 -0.000102537
1735000.0 0.589731008 -0.000162987
1759500.0 0.58976832 -0.000193599
1784000.0 0.589736576 -0.000178972
1808500.0 0.589748672 -0.000275695
1833000.0 0.589746304 -0.000288508
1857500.0 0.589746944 -0.000314667
1882000.0 0.589751296 -0.00037828
1906500.0 0.589728576 -0.000390214
1931000.0 0.589737472 -0.000419706
1955500.0 0.589728832 -0.000419779
1980000.0 0.589745088 -0.000481442
2004500.0 0.589711744 -0.000560632
2029000.0 0.58974112 -0.000557409
2053500.0 0.589707264 -0.000629596
2078000.0 0.589755008 -0.000667191
2102500.0 0.589742016 -0.000737455
2127000.0 0.589742336 -0.000732891
2151500.0 0.589736832 -0.000784331
2176000.0 0.589755328 -0.000808603
2200500.0 0.589711616 -0.000811925
2225000.0 0.589712832 -0.000891161
2249500.0 0.589748096 -0.000930693
2274000.0 0.589734016 -0.000991823
2298500.0 0.589744064 -0.001010958
2323000.0 0.589712512 -0.001119233
2347500.0 0.58972832 -0.001103191
2372000.0 0.589749248 -0.00108079
2396500.0 0.58974624 -0.001161033
2421000.0 0.589791616 -0.001169817
2445500.0 0.58972992 -0.001194347
2470000.0 0.589789952 -0.00126853
2494500.0 0.589742848 -0.001298542
2519000.0 0.58973632 -0.001276682
2543500.0 0.58973504 -0.001387623
2568000.0 0.589699264 -0.001388795
2592500.0 0.589741568 -0.001457189
2617000.0 0.589724096 -0.001464977
2641500.0 0.58976192 -0.001568596
2666000.0 0.589815488 -0.001509093
2690500.0 0.58976224 -0.00153263
2715000.0 0.589748608 -0.001650855
2739500.0 0.589723968 -0.001659614
2764000.0 0.589747712 -0.001702829
2788500.0 0.589712512 -0.001733538
2813000.0 0.589715392 -0.001735224
2837500.0 0.589785792 -0.001835381
2862000.0 0.589705728 -0.001845217
2886500.0 0.589789184 -0.001846209
2911000.0 0.589792384 -0.001933611
2935500.0 0.589731136 -0.001954527
2960000.0 0.58979104 -0.001977975
2984500.0 0.589760192 -0.002041059
3009000.0 0.589739136 -0.002063233
3033500.0 0.5897008 -0.002124049
3058000.0 0.589752512 -0.002135114
3082500.0 0.589744576 -0.002188432
3107000.0 0.589708864 -0.002234036
3131500.0 0.589731072 -0.002247151
3156000.0 0.58970656 -0.002341933
3180500.0 0.589781056 -0.002331956
3205000.0 0.589744128 -0.002387941
3229500.0 0.589741696 -0.002421289
3254000.0 0.589772736 -0.002387458
3278500.0 0.589728704 -0.002469427
3303000.0 0.589695168 -0.002521688
3327500.0 0.589694976 -0.002550208
3352000.0 0.589742208 -0.002569075
3376500.0 0.589690496 -0.002615253
3401000.0 0.589755072 -0.002667481
3425500.0 0.589712768 -0.002672392
3450000.0 0.589755712 -0.002747573
3474500.0 0.58969632 -0.00274719
3499000.0 0.589669952 -0.00281883
3523500.0 0.58974944 -0.002853208
3548000.0 0.5897536 -0.002871118
3572500.0 0.589718976 -0.002898693
3597000.0 0.589720576 -0.002927582
3621500.0 0.589724544 -0.003011528
3646000.0 0.58974752 -0.003035068
3670500.0 0.58969376 -0.003043558
3695000.0 0.589735168 -0.003085147
3719500.0 0.589676032 -0.003082694
3744000.0 0.589763328 -0.003089541
3768500.0 0.589672 -0.003194669
3793000.0 0.589717568 -0.003195202
3817500.0 0.589713536 -0.003308382
3842000.0 0.589722432 -0.003347247
3866500.0 0.589725632 -0.003321148
3891000.0 0.589685632 -0.003390715
3915500.0 0.589726336 -0.00339203
3940000.0 0.589702912 -0.003444597
3964500.0 0.58967808 -0.003509106
3989000.0 0.589710144 -0.003529041
4013500.0 0.589729856 -0.003574361
4038000.0 0.589712512 -0.003644079
4062500.0 0.589694016 -0.003568495
4087000.0 0.589711168 -0.003646834
4111500.0 0.589728 -0.003605846
4136000.0 0.589681536 -0.003790555
4160500.0 0.58969792 -0.003795118
4185000.0 0.589715328 -0.003780316
4209500.0 0.589693376 -0.003883263
4234000.0 0.589697472 -0.00386933
4258500.0 0.589644416 -0.003917859
4283000.0 0.589695168 -0.003973019
4307500.0 0.589705344 -0.004036902
4332000.0 0.589692544 -0.004016712
4356500.0 0.589675008 -0.00404602
4381000.0 0.589705984 -0.004115779
4405500.0 0.5896256 -0.004152973
4430000.0 0.589666496 -0.004167973
4454500.0 0.589725568 -0.004279517
4479000.0 0.58966528 -0.004250033
4503500.0 0.589677184 -0.004333534
4528000.0 0.589677248 -0.004262754
4552500.0 0.589647424 -0.004364659
4577000.0 0.589669184 -0.004375621
4601500.0 0.58967648 -0.004367498
4626000.0 0.589695424 -0.004461444
4650500.0 0.589703488 -0.004493267
4675000.0 0.589711936 -0.004561781
4699500.0 0.589721088 -0.004597285
4724000.0 0.589664512 -0.004552825
4748500.0 0.589653312 -0.004623208
4773000.0 0.589647104 -0.004659384
4797500.0 0.589661056 -0.004737725
4822000.0 0.589663552 -0.004719529
4846500.0 0.589636672 -0.004768128
4871000.0 0.589718144 -0.004770347
4895500.0 0.589706688 -0.004861889
4920000.0 0.589621248 -0.004878653
4944500.0 0.589661312 -0.004947491
4969000.0 0.589650688 -0.004927672
4993500.0 0.589657856 -0.004988588
5018000.0 0.58969856 -0.005010692
5042500.0 0.589661376 -0.005059
5067000.0 0.589658112 -0.005103647
5091500.0 0.589642944 -0.005114795
5116000.0 0.589685888 -0.005194118
5140500.0 0.589677504 -0.005186427
5165000.0 0.589655488 -0.005220524
5189500.0 0.589656832 -0.005262456
5214000.0 0.589616 -0.00533821
5238500.0 0.589669504 -0.005287342
5263000.0 0.589646848 -0.005427125
5287500.0 0.589678912 -0.005367709
5312000.0 0.589624128 -0.005390458
5336500.0 0.589700736 -0.005466357
5361000.0 0.589635648 -0.005506897
5385500.0 0.589721408 -0.005540198
5410000.0 0.589679104 -0.00557778
5434500.0 0.58964672 -0.005576911
5459000.0 0.58968768 -0.005548432
5483500.0 0.589642176 -0.005634409
5508000.0 0.589644736 -0.005681426
5532500.0 0.58965984 -0.005755411
5557000.0 0.589699136 -0.005770321
5581500.0 0.589679552 -0.005829518
5606000.0 0.589691968 -0.005789213
5630500.0 0.589672832 -0.005828052
5655000.0 0.5896592 -0.005891141
5679500.0 0.589608704 -0.005956317
5704000.0 0.589581504 -0.005968933
5728500.0 0.589632448 -0.006002951
5753000.0 0.589650496 -0.006082994
5777500.0 0.589641024 -0.006028376
5802000.0 0.589714368 -0.006127066
5826500.0 0.58964992 -0.006172958
5851000.0 0.589607424 -0.006179813
5875500.0 0.58972672 -0.00623461
5900000.0 0.589663104 -0.006239843
5924500.0 0.5897024 -0.00629378
5949000.0 0.589669376 -0.00631931
5973500.0 0.58960416 -0.006387749
5998000.0 0.589661888 -0.006381083
6022500.0 0.589627072 -0.006437675
6047000.0 0.589689024 -0.006480525
6071500.0 0.589682816 -0.006551323
6096000.0 0.589723712 -0.006548086
6120500.0 0.589577728 -0.006619587
6145000.0 0.5896432 -0.006577669
6169500.0 0.589649472 -0.00666197
6194000.0 0.589640768 -0.006686559
6218500.0 0.589644736 -0.006743199
6243000.0 0.589630592 -0.006777514
6267500.0 0.589659008 -0.006763916
6292000.0 0.589666624 -0.006809013
6316500.0 0.589633344 -0.006884822
6341000.0 0.589641344 -0.006908003
6365500.0 0.589665344 -0.006980685
6390000.0 0.5896688 -0.007011559
6414500.0 0.589633024 -0.007017609
6439000.0 0.589635072 -0.007027181
6463500.0 0.589611968 -0.007084054
6488000.0 0.589670976 -0.007145867
6512500.0 0.5896384 -0.007105758
6537000.0 0.589643904 -0.007200077
6561500.0 0.589646912 -0.007237158
6586000.0 0.589643968 -0.007233369
6610500.0 0.58960384 -0.007218972
6635000.0 0.589666304 -0.007366905
6659500.0 0.589651264 -0.007378805
6684000.0 0.589608768 -0.007404445
6708500.0 0.589592 -0.007417262
6733000.0 0.589652032 -0.007448103
6757500.0 0.5896304 -0.007516705
6782000.0 0.589632192 -0.007587936
6806500.0 0.589701888 -0.007642219
6831000.0 0.589644608 -0.00761285
6855500.0 0.589642048 -0.007669708
6880000.0 0.58966208 -0.007687118
6904500.0 0.589613184 -0.007757189
6929000.0 0.5896208 -0.00775441
6953500.0 0.589614976 -0.007767882
6978000.0 0.589579008 -0.00784036
7002500.0 0.589656192 -0.007895949
7027000.0 0.58960544 -0.007916984
7051500.0 0.589607552 -0.007984543
7076000.0 0.589639872 -0.008025709
7100500.0 0.58964384 -0.008007257
7125000.0 0.58963552 -0.00804817
7149500.0 0.589610496 -0.008146636
7174000.0 0.5896208 -0.008102594
7198500.0 0.589608768 -0.008159889
7223000.0 0.589620864 -0.008137606
7247500.0 0.58962528 -0.008144288
7272000.0 0.58963712 -0.008272771
7296500.0 0.589638336 -0.008297158
7321000.0 0.589667328 -0.008326075
7345500.0 0.589594112 -0.008361273
7370000.0 0.589599424 -0.008408913
7394500.0 0.589628032 -0.008422705
7419000.0 0.589560896 -0.008488222
7443500.0 0.589587968 -0.008505385
7468000.0 0.589678336 -0.008551012
7492500.0 0.589554496 -0.008581763
7517000.0 0.589595712 -0.008663195
7541500.0 0.589628416 -0.008653109
7566000.0 0.5896256 -0.008650831
7590500.0 0.589583552 -0.008750082
7615000.0 0.589630528 -0.008783593
7639500.0 0.58958688 -0.008810592
7664000.0 0.589632192 -0.00881803
7688500.0 0.589584768 -0.008825849
7713000.0 0.589627968 -0.00889073
7737500.0 0.589575616 -0.008993327
7762000.0 0.589611264 -0.008990687
7786500.0 0.58964832 -0.009016376
7811000.0 0.589580992 -0.009013505
7835500.0 0.58962976 -0.009064109
7860000.0 0.589581376 -0.009116813
7884500.0 0.589590976 -0.009153653
7909000.0 0.589651776 -0.009194358
7933500.0 0.589588096 -0.009222883
7958000.0 0.589625664 -0.009266092
7982500.0 0.589569856 -0.009275985
8007000.0 0.589581952 -0.009285978
8031500.0 0.58960512 -0.009364965
8056000.0 0.58960096 -0.009417988
8080500.0 0.589605312 -0.009427142
8105000.0 0.589614592 -0.009496755
8129500.0 0.589574912 -0.009494231
8154000.0 0.589572736 -0.0095081
8178500.0 0.589547968 -0.009562773
8203000.0 0.589577792 -0.009601893
8227500.0 0.589600896 -0.009701184
8252000.0 0.589652416 -0.009667029
8276500.0 0.589556224 -0.009719973
8301000.0 0.589576512 -0.009769109
8325500.0 0.589629696 -0.009830757
8350000.0 0.589590656 -0.009854209
8374500.0 0.589563456 -0.009882974
8399000.0 0.589564224 -0.009914231
8423500.0 0.589566848 -0.009988567
8448000.0 0.589549632 -0.009921885
8472500.0 0.589570944 -0.009969116
8497000.0 0.589574656 -0.010049576
8521500.0 0.589564352 -0.010077864
8546000.0 0.589536704 -0.010083013
8570500.0 0.58954336 -0.010147709
8595000.0 0.589558208 -0.010196894
8619500.0 0.589572032 -0.01016111
8644000.0 0.589604288 -0.010265944
8668500.0 0.58954848 -0.010276103
8693000.0 0.589561408 -0.010320557
8717500.0 0.589547584 -0.010397789
8742000.0 0.589566848 -0.010417562
8766500.0 0.589567296 -0.010389055
8791000.0 0.58955456 -0.010488567
8815500.0 0.589561792 -0.010466854
8840000.0 0.589591296 -0.010517146
8864500.0 0.589501376 -0.010582036
8889000.0 0.589498688 -0.010621565
8913500.0 0.589570944 -0.010619668
8938000.0 0.589580544 -0.01069711
8962500.0 0.589484736 -0.010700653
8987000.0 0.589580864 -0.010727272
9011500.0 0.589488768 -0.010824146
9036000.0 0.589500672 -0.010812622
9060500.0 0.589617088 -0.010828648
9085000.0 0.589500096 -0.010842251
9109500.0 0.58946944 -0.010910029
9134000.0 0.589572032 -0.010990656
9158500.0 0.589561408 -0.010976349
9183000.0 0.589521856 -0.011022086
9207500.0 0.589496704 -0.011035922
9232000.0 0.5895504 -0.01108269
9256500.0 0.589515456 -0.011121257
9281000.0 0.589535104 -0.011163461
9305500.0 0.589537792 -0.011148453
9330000.0 0.589488768 -0.01125749
9354500.0 0.589525184 -0.01125131
9379000.0 0.589554048 -0.011300653
9403500.0 0.58952096 -0.01133055
9428000.0 0.58951264 -0.011427695
9452500.0 0.589575808 -0.011425783
9477000.0 0.589491776 -0.011466089
9501500.0 0.589541504 -0.011467633
9526000.0 0.58956 -0.011490047
9550500.0 0.589411712 -0.011545475
9575000.0 0.589476992 -0.011539675
9599500.0 0.58953824 -0.011624799
9624000.0 0.589478848 -0.011611981
9648500.0 0.589513728 -0.011688777
9673000.0 0.58948448 -0.011693711
9697500.0 0.589549632 -0.011748553
9722000.0 0.589509376 -0.011781958
9746500.0 0.589480192 -0.011770346
9771000.0 0.589533504 -0.011866421
9795500.0 0.589520768 -0.011870094
9820000.0 0.589443776 -0.011925551
9844500.0 0.589509312 -0.012013423
9869000.0 0.589467392 -0.011988779
9893500.0 0.58943968 -0.012039789
9918000.0 0.58949088 -0.012107164
9942500.0 0.58950784 -0.01205775
9967000.0 0.589464576 -0.012072911
9991500.0 0.589477568 -0.012180185
10016000.0 0.589470144 -0.012225299
10040500.0 0.589557184 -0.012236495
10065000.0 0.589445632 -0.012276583
10089500.0 0.589486592 -0.012356524
10114000.0 0.589474432 -0.012389946
10138500.0 0.589467968 -0.012407272
10163000.0 0.589514496 -0.012407623
10187500.0 0.58948 -0.012453585
10212000.0 0.589497088 -0.012483919
10236500.0 0.589444928 -0.012522772
10261000.0 0.58944096 -0.012574436
10285500.0 0.589487104 -0.012556192
10310000.0 0.589462208 -0.012592818
10334500.0 0.589458496 -0.01267033
10359000.0 0.58946528 -0.012652814
10383500.0 0.589428608 -0.012721832
10408000.0 0.589479808 -0.01278854
10432500.0 0.589435904 -0.012829006
10457000.0 0.58950688 -0.012854904
10481500.0 0.589421824 -0.012871477
10506000.0 0.589448256 -0.012912389
10530500.0 0.589500416 -0.01291757
10555000.0 0.589491904 -0.01296504
10579500.0 0.589442048 -0.012980395
10604000.0 0.589404096 -0.013052586
10628500.0 0.58944128 -0.013068151
10653000.0 0.589470208 -0.013071993
10677500.0 0.589437248 -0.013158168
10702000.0 0.589507584 -0.013170816
10726500.0 0.589413248 -0.013232587
10751000.0 0.589502464 -0.013227608
10775500.0 0.589437824 -0.013326007
10800000.0 0.589428608 -0.013292997
10824500.0 0.589436672 -0.013361455
10849000.0 0.589426624 -0.013341398
10873500.0 0.58946848 -0.013400905
10898000.0 0.589481472 -0.013446637
10922500.0 0.5894352 -0.013481671
10947000.0 0.589426368 -0.013541437
10971500.0 0.58945024 -0.013534254
10996000.0 0.589411456 -0.013571407
11020500.0 0.589416448 -0.013555245
11045000.0 0.589464576 -0.013666984
11069500.0 0.58941216 -0.013696984
11094000.0 0.589372416 -0.013654649
11118500.0 0.589411968 -0.013762742
11143000.0 0.589447488 -0.013826576
11167500.0 0.589474048 -0.013881007
11192000.0 0.589410176 -0.0139221
11216500.0 0.589386816 -0.013895322
11241000.0 0.589451392 -0.013889662
11265500.0 0.589413952 -0.013942938
11290000.0 0.589446528 -0.013976557
11314500.0 0.589378624 -0.013979081
11339000.0 0.589418496 -0.014100506
11363500.0 0.589381376 -0.014108176
11388000.0 0.589392704 -0.014107722
11412500.0 0.589413184 -0.01421122
11437000.0 0.589469824 -0.014205418
11461500.0 0.589390976 -0.014221153
11486000.0 0.589390784 -0.014263837
11510500.0 0.58940992 -0.014294924
11535000.0 0.589431232 -0.01437158
11559500.0 0.589396992 -0.014353941
11584000.0 0.589355008 -0.014385825
11608500.0 0.589421888 -0.014404634
11633000.0 0.589346304 -0.014460248
11657500.0 0.589403584 -0.01453198
11682000.0 0.589409856 -0.014559554
11706500.0 0.589355072 -0.014601511
11731000.0 0.589357568 -0.014622432
11755500.0 0.589375744 -0.014642774
11780000.0 0.589424576 -0.01469562
11804500.0 0.589399296 -0.014683127
11829000.0 0.589386112 -0.014726727
11853500.0 0.589411776 -0.014822505
11878000.0 0.589366336 -0.014840677
11902500.0 0.589403712 -0.014833551
11927000.0 0.58940928 -0.014888642
11951500.0 0.589401984 -0.014926673
11976000.0 0.589335744 -0.014963753
12000500.0 0.589394176 -0.014954771
12025000.0 0.589399424 -0.01498385
12049500.0 0.589411968 -0.014994004
12074000.0 0.589348992 -0.015145681
12098500.0 0.589400192 -0.015139173
12123000.0 0.589329536 -0.015180199
12147500.0 0.58936032 -0.015176604
12172000.0 0.58937472 -0.015224126
12196500.0 0.589342976 -0.015230647
12221000.0 0.589423232 -0.015373606
12245500.0 0.589344448 -0.015356481
12270000.0 0.589351744 -0.015368564
12294500.0 0.589406784 -0.015366555
12319000.0 0.589383872 -0.015454772
12343500.0 0.589361664 -0.015406368
12368000.0 0.589352 -0.01554493
12392500.0 0.58934688 -0.01551269
12417000.0 0.589351616 -0.015582316
12441500.0 0.589363904 -0.015604534
12466000.0 0.589377728 -0.015630886
12490500.0 0.589332032 -0.015732186
12515000.0 0.589359552 -0.015703263
12539500.0 0.589344128 -0.015746307
12564000.0 0.58937248 -0.015819388
12588500.0 0.58937216 -0.015831063
12613000.0 0.589359168 -0.015888185
12637500.0 0.589365632 -0.015884661
12662000.0 0.589385216 -0.015912427
12686500.0 0.589375936 -0.015965824
12711000.0 0.58940384 -0.015944902
12735500.0 0.589396416 -0.015993922
12760000.0 0.589335744 -0.016072536
12784500.0 0.589350144 -0.016092407
12809000.0 0.58935328 -0.016105271
12833500.0 0.58929856 -0.016177809
12858000.0 0.589317312 -0.016191656
12882500.0 0.589371904 -0.016233599
12907000.0 0.589306624 -0.016221528
12931500.0 0.58936864 -0.01625537
12956000.0 0.589323328 -0.016345449
12980500.0 0.589365568 -0.016371172
13005000.0 0.58935232 -0.016375119
13029500.0 0.589372672 -0.016446831
13054000.0 0.589357504 -0.016519731
13078500.0 0.589331456 -0.016460037
13103000.0 0.589400576 -0.01653904
13127500.0 0.589288128 -0.016611748
13152000.0 0.589269248 -0.016605033
13176500.0 0.589339712 -0.016683635
13201000.0 0.589328832 -0.016650146
13225500.0 0.589309504 -0.016724291
13250000.0 0.589330688 -0.016740775
13274500.0 0.589271296 -0.016824718
13299000.0 0.589284608 -0.016839214
13323500.0 0.589349632 -0.016868528
13348000.0 0.589317312 -0.016824328
13372500.0 0.589323072 -0.016887666
13397000.0 0.58934656 -0.01695935
13421500.0 0.589329856 -0.017002104
13446000.0 0.589305984 -0.017029924
13470500.0 0.589319296 -0.017059308
13495000.0 0.589342144 -0.017082826
13519500.0 0.589275776 -0.01714036
13544000.0 0.589339008 -0.017218834
13568500.0 0.589305152 -0.017163084
13593000.0 0.589259136 -0.01722754
13617500.0 0.58927296 -0.017267906
13642000.0 0.589312832 -0.017353808
13666500.0 0.589275904 -0.017316092
13691000.0 0.589308288 -0.01738832
13715500.0 0.589315264 -0.017410462
13740000.0 0.589322496 -0.017367916
13764500.0 0.589262592 -0.017486862
13789000.0 0.58925056 -0.01754265
13813500.0 0.589253504 -0.017583344
13838000.0 0.589257984 -0.017560228
13862500.0 0.589279296 -0.017611814
13887000.0 0.589327424 -0.017719778
13911500.0 0.589333376 -0.017681464
13936000.0 0.58926144 -0.017710114
13960500.0 0.589351872 -0.017772962
13985000.0 0.589304128 -0.017793478
14009500.0 0.589296704 -0.017836058
14034000.0 0.589318592 -0.017853994
14058500.0 0.589278848 -0.017856314
14083000.0 0.589343744 -0.017917694
14107500.0 0.589217152 -0.017943648
14132000.0 0.58928256 -0.017986802
14156500.0 0.58921472 -0.017969924
14181000.0 0.589268928 -0.01804118
14205500.0 0.589302144 -0.0181125
14230000.0 0.589276224 -0.018144682
14254500.0 0.589274368 -0.018131622
14279000.0 0.5892288 -0.018174598
14303500.0 0.589255936 -0.018239048
14328000.0 0.58922592 -0.018261234
14352500.0 0.589242304 -0.018300376
14377000.0 0.589198336 -0.018352474
14401500.0 0.58923616 -0.018327326
14426000.0 0.589233536 -0.018424574
14450500.0 0.589267712 -0.018410302
14475000.0 0.589254848 -0.01853989
14499500.0 0.58922816 -0.01851319
14524000.0 0.589210752 -0.018569838
14548500.0 0.589238528 -0.018594654
14573000.0 0.58921344 -0.018618622
14597500.0 0.589319808 -0.018665512
14622000.0 0.589225088 -0.018747924
14646500.0 0.589202688 -0.018708918
14671000.0 0.589231296 -0.018782902
14695500.0 0.589264704 -0.01876497
14720000.0 0.589249024 -0.018805566
14744500.0 0.589264128 -0.01883319
14769000.0 0.58922912 -0.018924148
14793500.0 0.589217472 -0.018939864
14818000.0 0.589209024 -0.018970974
14842500.0 0.589178688 -0.01900206
14867000.0 0.589232896 -0.019074706
14891500.0 0.589291968 -0.019111968
14916000.0 0.589235072 -0.019130142
14940500.0 0.589200384 -0.019162822
