! Created with skrf (http://scikit-rf.org).
# Hz S RI R 50.0 
!freq ReS11 ImS11
1000000.0 -0.79343776 -0.001069042
1024500.0 -0.793318208 -0.001029306
1049000.0 -0.793288256 -0.000970236
1073500.0 -0.793399424 -0.000826918
1098000.0 -0.793359872 -0.000786178
1122500.0 -0.793407296 -0.000688345
1147000.0 -0.793405632 -0.000689118
1171500.0 -0.793344064 -0.000667837
1196000.0 -0.793288704 -0.000456248
1220500.0 -0.793380544 -0.000403436
1245000.0 -0.793246272 -0.000381979
1269500.0 -0.79336736 -0.00026149
1294000.0 -0.793434048 -0.000309534
1318500.0 -0.793414784 -0.000176138
1343000.0 -0.793191744 -4.3763e-05
1367500.0 -0.793420224 -0.00012095
1392000.0 -0.793339392 0.00013021
1416500.0 -0.793301952 5.4996e-05
1441000.0 -0.793377472 6.0729e-05
1465500.0 -0.793404352 0.000164644
1490000.0 -0.793352064 0.000319775
1514500.0 -0.793331456 0.000205447
1539000.0 -0.793355392 0.000353035
1563500.0 -0.79336672 0.000456771
1588000.0 -0.793310656 0.000491117
1612500.0 -0.793325696 0.000568581
1637000.0 -0.793287104 0.000612556
1661500.0 -0.793275456 0.000669871
1686000.0 -0.79329024 0.000796061
1710500.0 -0.793280128 0.000802792
1735000.0 -0.793355136 0.0008677
1759500.0 -0.793303872 0.000902128
1784000.0 -0.793290112 0.000965556
1808500.0 -0.793312512 0.001113738
1833000.0 -0.793233088 0.001124982
1857500.0 -0.793361856 0.001237441
1882000.0 -0.793284288 0.001195732
1906500.0 -0.793280576 0.001343971
1931000.0 -0.79330688 0.001420695
1955500.0 -0.793423168 0.001439757
1980000.0 -0.793291008 0.001459354
2004500.0 -0.793386816 0.001518564
2029000.0 -0.79333024 0.001632898
2053500.0 -0.793304128 0.001717731
2078000.0 -0.793274368 0.00173788
2102500.0 -0.793440192 0.001756031
2127000.0 -0.793306112 0.001859205
2151500.0 -0.793349184 0.002009524
2176000.0 -0.793315904 0.001974699
2200500.0 -0.79332832 0.002115365
2225000.0 -0.793292864 0.002136451
2249500.0 -0.793228032 0.002217533
2274000.0 -0.79323552 0.002349099
2298500.0 -0.793276608 0.002276265
2323000.0 -0.793382208 0.002419496
2347500.0 -0.79326464 0.002391192
2372000.0 -0.793308864 0.002449177
2396500.0 -0.793312384 0.002592554
2421000.0 -0.793256768 0.002632931
2445500.0 -0.7933264 0.002573326
2470000.0 -0.793260096 0.002716512
2494500.0 -0.79328928 0.002750485
2519000.0 -0.793236096 0.002881006
2543500.0 -0.793300544 0.002948127
2568000.0 -0.79323712 0.003038644
2592500.0 -0.793205504 0.003010808
2617000.0 -0.793349376 0.003064183
2641500.0 -0.79337216 0.003176269
2666000.0 -0.793235776 0.003220383
2690500.0 -0.793268352 0.003308592
2715000.0 -0.793346752 0.003378211
2739500.0 -0.793350272 0.003389086
2764000.0 -0.793214656 0.003464482
2788500.0 -0.793250176 0.003510908
2813000.0 -0.793230848 0.003518724
2837500.0 -0.793300544 0.003675476
2862000.0 -0.793241088 0.003760699
2886500.0 -0.7932096 0.003712254
2911000.0 -0.793246016 0.003882903
2935500.0 -0.793263936 0.00382818
2960000.0 -0.793294592 0.003912611
2984500.0 -0.793257152 0.003960504
3009000.0 -0.793214208 0.00404818
3033500.0 -0.793227072 0.004099183
3058000.0 -0.793290944 0.004135225
3082500.0 -0.793267072 0.004185629
3107000.0 -0.793198336 0.004323381
3131500.0 -0.793190656 0.004371421
3156000.0 -0.79316384 0.004489102
3180500.0 -0.793208448 0.004387796
3205000.0 -0.79319936 0.004524613
3229500.0 -0.793331392 0.004554641
3254000.0 -0.79312224 0.004684634
3278500.0 -0.793268288 0.004636184
3303000.0 -0.793258368 0.004734837
3327500.0 -0.793211584 0.004690497
3352000.0 -0.793298176 0.004927201
3376500.0 -0.79318656 0.004947774
3401000.0 -0.793197568 0.005013288
3425500.0 -0.793239744 0.00504482
3450000.0 -0.793140416 0.005092476
3474500.0 -0.793193856 0.005064731
3499000.0 -0.793202688 0.005173791
3523500.0 -0.79322112 0.005314891
3548000.0 -0.793234752 0.005399387
3572500.0 -0.793216768 0.005390561
3597000.0 -0.793229952 0.005458417
3621500.0 -0.793159104 0.005575773
3646000.0 -0.793152448 0.005530832
3670500.0 -0.793184832 0.005660801
3695000.0 -0.793239744 0.00569156
3719500.0 -0.793165376 0.005737188
3744000.0 -0.793168704 0.005784171
3768500.0 -0.79316224 0.005909432
3793000.0 -0.79307232 0.005936445
3817500.0 -0.79318112 0.005926849
3842000.0 -0.793142976 0.006047922
3866500.0 -0.793102848 0.006113557
3891000.0 -0.793162752 0.00614953
3915500.0 -0.793238592 0.006278567
3940000.0 -0.793125248 0.006196431
3964500.0 -0.793237952 0.006359159
3989000.0 -0.793144384 0.006297751
4013500.0 -0.793208512 0.006441283
4038000.0 -0.79315968 0.006619891
4062500.0 -0.79313728 0.006585964
4087000.0 -0.793019712 0.006622142
4111500.0 -0.793156288 0.006701577
4136000.0 -0.7931488 0.006764327
4160500.0 -0.79328512 0.006749803
4185000.0 -0.79308512 0.006803429
4209500.0 -0.793012928 0.006902844
4234000.0 -0.793118208 0.006936705
4258500.0 -0.793153728 0.007009685
4283000.0 -0.793116992 0.007085167
4307500.0 -0.79305344 0.007133273
4332000.0 -0.793132032 0.007199472
4356500.0 -0.7930928 0.007226924
4381000.0 -0.79310624 0.007255774
4405500.0 -0.793118528 0.007369481
4430000.0 -0.793138432 0.007533993
4454500.0 -0.793071808 0.007426044
4479000.0 -0.793109824 0.007538127
4503500.0 -0.793090432 0.007572785
4528000.0 -0.793097024 0.00764239
4552500.0 -0.793071168 0.00767773
4577000.0 -0.793055232 0.007778362
4601500.0 -0.793105344 0.007941179
4626000.0 -0.793057984 0.007913854
4650500.0 -0.793128384 0.008001216
4675000.0 -0.79318976 0.007978379
4699500.0 -0.79305632 0.008132151
4724000.0 -0.793078208 0.008104319
4748500.0 -0.793062784 0.008265521
4773000.0 -0.793158272 0.008191503
4797500.0 -0.793150848 0.008371352
4822000.0 -0.793075712 0.008360219
4846500.0 -0.793026304 0.008422503
4871000.0 -0.793059584 0.008481599
4895500.0 -0.793015872 0.00854562
4920000.0 -0.793108096 0.008678891
4944500.0 -0.793002688 0.008726275
4969000.0 -0.793095104 0.008670588
4993500.0 -0.793066112 0.008756493
5018000.0 -0.793138112 0.008819296
5042500.0 -0.793182848 0.008889474
5067000.0 -0.793028288 0.00897489
5091500.0 -0.79309888 0.009022225
5116000.0 -0.793048064 0.00901629
5140500.0 -0.793026368 0.009120618
5165000.0 -0.79304576 0.009074259
5189500.0 -0.79299424 0.009284321
5214000.0 -0.793063552 0.009315356
5238500.0 -0.793022976 0.009331199
5263000.0 -0.793104832 0.009402138
5287500.0 -0.792944576 0.009419637
5312000.0 -0.79302464 0.009460969
5336500.0 -0.7930384 0.009520909
5361000.0 -0.793114752 0.009682747
5385500.0 -0.79303456 0.009668705
5410000.0 -0.792980096 0.009794379
5434500.0 -0.792992064 0.009764172
5459000.0 -0.793066944 0.00992357
5483500.0 -0.793024384 0.009897862
5508000.0 -0.792957952 0.010029331
5532500.0 -0.7929824 0.010044
5557000.0 -0.79304768 0.010065278
5581500.0 -0.792907072 0.010134525
5606000.0 -0.793053568 0.010239087
5630500.0 -0.79296224 0.01036807
5655000.0 -0.792906752 0.010346098
5679500.0 -0.793054336 0.010455201
5704000.0 -0.793059072 0.010471404
5728500.0 -0.79286528 0.010534968
5753000.0 -0.79302784 0.010559618
5777500.0 -0.79297408 0.010602096
5802000.0 -0.793022848 0.010610201
5826500.0 -0.792857152 0.010675883
5851000.0 -0.792921216 0.010791487
5875500.0 -0.7929728 0.010820963
5900000.0 -0.7930192 0.010884008
5924500.0 -0.792923392 0.010961136
5949000.0 -0.792977408 0.011065235
5973500.0 -0.79289248 0.011094437
5998000.0 -0.79287872 0.011154248
6022500.0 -0.792894976 0.011209888
6047000.0 -0.792955456 0.011253441
6071500.0 -0.7929728 0.011301093
6096000.0 -0.793037824 0.01141376
6120500.0 -0.792960832 0.011502427
6145000.0 -0.792984576 0.011477726
6169500.0 -0.792956864 0.011535462
6194000.0 -0.792938112 0.011677096
6218500.0 -0.79287424 0.011789369
6243000.0 -0.79288608 0.011688577
6267500.0 -0.793009664 0.011806194
6292000.0 -0.79301056 0.011810208
6316500.0 -0.79295104 0.011874887
6341000.0 -0.792839104 0.011920115
6365500.0 -0.792913856 0.012080375
6390000.0 -0.792970368 0.012003207
6414500.0 -0.792906816 0.012074436
6439000.0 -0.792905792 0.012140261
6463500.0 -0.792793792 0.012175469
6488000.0 -0.792793984 0.012290071
6512500.0 -0.792898112 0.012412506
6537000.0 -0.79288544 0.012392423
6561500.0 -0.79293248 0.012453239
6586000.0 -0.792763264 0.012631293
6610500.0 -0.79283168 0.012507394
6635000.0 -0.792778816 0.012614568
6659500.0 -0.792904704 0.012760748
6684000.0 -0.792842304 0.012776757
6708500.0 -0.792835648 0.012821416
6733000.0 -0.792767168 0.012879095
6757500.0 -0.792868352 0.012964301
6782000.0 -0.792753728 0.012962905
6806500.0 -0.792901248 0.013050023
6831000.0 -0.792913216 0.013184229
6855500.0 -0.792902272 0.013137761
6880000.0 -0.792829184 0.013197097
6904500.0 -0.792897728 0.013250991
6929000.0 -0.792827456 0.013337146
6953500.0 -0.792773952 0.013320951
6978000.0 -0.792854656 0.013523279
7002500.0 -0.792874176 0.013474757
7027000.0 -0.792736448 0.013596831
7051500.0 -0.792811904 0.013647561
7076000.0 -0.792847424 0.013633599
7100500.0 -0.792827712 0.013856096
7125000.0 -0.79275584 0.013770105
7149500.0 -0.792797504 0.013804444
7174000.0 -0.79280576 0.013906193
7198500.0 -0.79272992 0.013907815
7223000.0 -0.792800192 0.014034437
7247500.0 -0.792746112 0.014086155
7272000.0 -0.79282464 0.014173739
7296500.0 -0.792734912 0.014173896
7321000.0 -0.792821888 0.014211018
7345500.0 -0.792763968 0.014253512
7370000.0 -0.792689216 0.014343982
7394500.0 -0.7926848 0.014427864
7419000.0 -0.792788864 0.014423329
7443500.0 -0.792717504 0.014464489
7468000.0 -0.79266336 0.014652352
7492500.0 -0.792711808 0.014687858
7517000.0 -0.792816192 0.014676467
7541500.0 -0.79272192 0.014789003
7566000.0 -0.792726144 0.014799228
7590500.0 -0.7926944 0.014941516
7615000.0 -0.792580288 0.014895996
7639500.0 -0.792703424 0.014943911
7664000.0 -0.792695488 0.014969493
7688500.0 -0.792760256 0.015031875
7713000.0 -0.792619968 0.015101816
7737500.0 -0.792660928 0.015221312
7762000.0 -0.792726144 0.015256946
7786500.0 -0.792737984 0.015298193
7811000.0 -0.792689024 0.015327583
7835500.0 -0.792668032 0.015400086
7860000.0 -0.792710592 0.015500541
7884500.0 -0.79262752 0.015524298
7909000.0 -0.792716224 0.015484569
7933500.0 -0.79267072 0.015645026
7958000.0 -0.792613568 0.015682506
7982500.0 -0.792626176 0.015773537
8007000.0 -0.792697024 0.015704982
8031500.0 -0.792647744 0.015862337
8056000.0 -0.792609216 0.015921599
8080500.0 -0.792675392 0.015933577
8105000.0 -0.792642176 0.016041581
8129500.0 -0.792722624 0.015997589
8154000.0 -0.792634816 0.016162435
8178500.0 -0.792734848 0.016103201
8203000.0 -0.792656512 0.016124666
8227500.0 -0.792622976 0.016266799
8252000.0 -0.792691136 0.016399729
8276500.0 -0.792580864 0.016400544
8301000.0 -0.792589568 0.016460713
8325500.0 -0.792600192 0.01650942
8350000.0 -0.79271168 0.016531937
8374500.0 -0.79266848 0.016561883
8399000.0 -0.792612352 0.016764123
8423500.0 -0.7925744 0.016734388
8448000.0 -0.792538752 0.016737449
8472500.0 -0.792598592 0.016866982
8497000.0 -0.79257024 0.016881028
8521500.0 -0.792631872 0.016997646
8546000.0 -0.792653376 0.017081834
8570500.0 -0.792602432 0.017109146
8595000.0 -0.792536576 0.017090208
8619500.0 -0.792602752 0.017211186
8644000.0 -0.792539136 0.01721453
8668500.0 -0.792609344 0.017259728
8693000.0 -0.792518592 0.017410532
8717500.0 -0.792606208 0.01745515
8742000.0 -0.792571776 0.017481828
8766500.0 -0.79257856 0.017591002
8791000.0 -0.79265312 0.017644116
8815500.0 -0.792637056 0.017653902
8840000.0 -0.792630784 0.017787302
8864500.0 -0.792640512 0.017808728
8889000.0 -0.792615808 0.017798468
8913500.0 -0.792658048 0.01784684
8938000.0 -0.79255936 0.017967796
8962500.0 -0.792519552 0.017997196
8987000.0 -0.792497088 0.018101208
9011500.0 -0.792549312 0.018146222
9036000.0 -0.792512576 0.018125032
9060500.0 -0.792549184 0.01819519
9085000.0 -0.792592192 0.018310724
9109500.0 -0.792594304 0.018343396
9134000.0 -0.792458176 0.018310288
9158500.0 -0.792537408 0.018447664
9183000.0 -0.792600832 0.018430104
9207500.0 -0.792469056 0.018599224
9232000.0 -0.79246048 0.01865446
9256500.0 -0.792486656 0.018609166
9281000.0 -0.792595008 0.01866418
9305500.0 -0.792587584 0.018844404
9330000.0 -0.792490816 0.018803438
9354500.0 -0.792460672 0.01894631
9379000.0 -0.792511808 0.018922828
9403500.0 -0.792470784 0.018939008
9428000.0 -0.792518208 0.018975776
9452500.0 -0.792515328 0.019164488
9477000.0 -0.792530112 0.019120256
9501500.0 -0.792548032 0.019266186
9526000.0 -0.792462848 0.019255908
9550500.0 -0.79243936 0.019256032
9575000.0 -0.792521088 0.019348404
9599500.0 -0.792463104 0.019400368
9624000.0 -0.79244448 0.019479988
9648500.0 -0.792412736 0.01959336
9673000.0 -0.792458624 0.019575572
9697500.0 -0.792447808 0.019662808
9722000.0 -0.792467264 0.019790874
9746500.0 -0.79240704 0.01976335
9771000.0 -0.79241344 0.019902674
9795500.0 -0.792454592 0.019942094
9820000.0 -0.792518528 0.01992691
9844500.0 -0.792488704 0.019956026
9869000.0 -0.792504512 0.020107358
9893500.0 -0.792441152 0.02015758
9918000.0 -0.792472576 0.020221002
9942500.0 -0.792421312 0.020206872
9967000.0 -0.792463232 0.020291456
9991500.0 -0.792433472 0.020329626
10016000.0 -0.79247968 0.020278442
10040500.0 -0.792322368 0.020522658
10065000.0 -0.792456768 0.02047705
10089500.0 -0.792402112 0.02061148
10114000.0 -0.792403776 0.020558314
10138500.0 -0.79236096 0.02064435
10163000.0 -0.792398592 0.020730116
10187500.0 -0.792430464 0.020837388
10212000.0 -0.792448128 0.02085449
10236500.0 -0.792319232 0.020848302
10261000.0 -0.792397312 0.02090188
10285500.0 -0.792373184 0.02107
10310000.0 -0.792397824 0.0210263
10334500.0 -0.79250976 0.021163778
10359000.0 -0.792390784 0.021138564
10383500.0 -0.792378432 0.021122206
10408000.0 -0.792403264 0.021293454
10432500.0 -0.792356096 0.021319058
10457000.0 -0.792353408 0.021315616
10481500.0 -0.792339392 0.02141704
10506000.0 -0.792339648 0.02148848
10530500.0 -0.7923472 0.021628642
10555000.0 -0.79237472 0.02163616
10579500.0 -0.792440192 0.021621188
10604000.0 -0.792293568 0.02174332
10628500.0 -0.792330688 0.021785404
10653000.0 -0.792363072 0.021850798
10677500.0 -0.79232064 0.021910112
10702000.0 -0.792365312 0.021913776
10726500.0 -0.79236672 0.02200312
10751000.0 -0.792319232 0.022091662
10775500.0 -0.792238848 0.022151136
10800000.0 -0.792276608 0.022240414
10824500.0 -0.792282304 0.02225756
10849000.0 -0.792287104 0.022252404
10873500.0 -0.792426624 0.022337934
10898000.0 -0.792226496 0.022424202
10922500.0 -0.792346496 0.022450614
10947000.0 -0.7922576 0.022468096
10971500.0 -0.792309952 0.022501688
10996000.0 -0.792305472 0.02254782
11020500.0 -0.7922544 0.022717278
11045000.0 -0.792292992 0.022671872
11069500.0 -0.792291264 0.022792378
11094000.0 -0.792217152 0.02283964
11118500.0 -0.792328896 0.022803432
11143000.0 -0.792262976 0.022865654
11167500.0 -0.792215488 0.022947394
11192000.0 -0.792270912 0.022977504
11216500.0 -0.792307456 0.023062252
11241000.0 -0.792253568 0.023060752
11265500.0 -0.792381312 0.023254388
11290000.0 -0.792301888 0.023189992
11314500.0 -0.792206208 0.02335825
11339000.0 -0.792265088 0.023362918
11363500.0 -0.792272704 0.02338623
11388000.0 -0.792236928 0.023482164
11412500.0 -0.792339264 0.023652162
11437000.0 -0.792274752 0.02360028
11461500.0 -0.792252992 0.023661992
11486000.0 -0.792225408 0.023705892
11510500.0 -0.792210176 0.023801932
11535000.0 -0.792227584 0.02376856
11559500.0 -0.792272064 0.023849308
11584000.0 -0.79233536 0.024012504
11608500.0 -0.79226176 0.023993476
11633000.0 -0.792198464 0.02409988
11657500.0 -0.792173376 0.02408774
11682000.0 -0.792279488 0.024106678
11706500.0 -0.792253568 0.024147954
11731000.0 -0.792310656 0.024266334
11755500.0 -0.792315072 0.024292008
11780000.0 -0.792164928 0.02437494
11804500.0 -0.792100224 0.024477456
11829000.0 -0.79218976 0.02448935
11853500.0 -0.792168768 0.024491164
11878000.0 -0.792210496 0.024602276
11902500.0 -0.79211136 0.024654688
11927000.0 -0.792141824 0.024753664
11951500.0 -0.792159616 0.024741404
11976000.0 -0.792284096 0.02481928
12000500.0 -0.792243072 0.024892862
12025000.0 -0.79218016 0.024978384
12049500.0 -0.792296448 0.02495708
12074000.0 -0.792135872 0.025090534
12098500.0 -0.79223072 0.025174648
12123000.0 -0.792081344 0.025028586
12147500.0 -0.792263936 0.025274218
12172000.0 -0.792163008 0.025336128
12196500.0 -0.7922256 0.02534307
12221000.0 -0.792181632 0.025325618
12245500.0 -0.792255936 0.02553198
12270000.0 -0.792216832 0.025539638
12294500.0 -0.792077376 0.025577408
12319000.0 -0.792159488 0.025604668
12343500.0 -0.79214752 0.025675998
12368000.0 -0.792028288 0.025650638
12392500.0 -0.792098432 0.025731694
12417000.0 -0.79205696 0.025817008
12441500.0 -0.792135744 0.02589439
12466000.0 -0.792155712 0.025936542
12490500.0 -0.792020736 0.026004658
12515000.0 -0.792008128 0.026108882
12539500.0 -0.792097856 0.026124842
12564000.0 -0.792140096 0.026203244
12588500.0 -0.792126208 0.026256924
12613000.0 -0.792054912 0.026337624
12637500.0 -0.792076352 0.026376856
12662000.0 -0.79209728 0.026402284
12686500.0 -0.792131776 0.026462728
12711000.0 -0.7921584 0.026538926
12735500.0 -0.792021056 0.026564136
12760000.0 -0.79208544 0.026645136
12784500.0 -0.792014272 0.02671421
12809000.0 -0.791989696 0.026723664
12833500.0 -0.791990528 0.026757802
12858000.0 -0.792048192 0.026953326
12882500.0 -0.791972992 0.026926542
12907000.0 -0.792065088 0.026973938
12931500.0 -0.79205312 0.026987886
12956000.0 -0.791985216 0.027030306
12980500.0 -0.79201504 0.027198826
13005000.0 -0.792015104 0.027161762
13029500.0 -0.792104384 0.027255042
13054000.0 -0.79204832 0.027331718
13078500.0 -0.792002304 0.027349878
13103000.0 -0.792088896 0.02740474
13127500.0 -0.792035072 0.027494102
13152000.0 -0.792003968 0.027426372
13176500.0 -0.7920336 0.027603428
13201000.0 -0.791954112 0.027691422
13225500.0 -0.79196128 0.027609292
13250000.0 -0.792044544 0.027792246
13274500.0 -0.79195424 0.027801558
13299000.0 -0.791982272 0.027908682
13323500.0 -0.792096512 0.02791636
13348000.0 -0.792024704 0.028007578
13372500.0 -0.792013056 0.02810468
13397000.0 -0.791983872 0.028108948
13421500.0 -0.79195872 0.02813217
13446000.0 -0.792011712 0.028175158
13470500.0 -0.792035712 0.028327886
13495000.0 -0.792045504 0.028223568
13519500.0 -0.79197696 0.02839837
13544000.0 -0.79197952 0.028397052
13568500.0 -0.791978368 0.028486576
13593000.0 -0.792074496 0.02859812
13617500.0 -0.791917632 0.028630986
13642000.0 -0.791961152 0.028682306
13666500.0 -0.791902336 0.028714752
13691000.0 -0.791932224 0.028798038
13715500.0 -0.791942976 0.028753676
13740000.0 -0.79195968 0.028903352
13764500.0 -0.791856704 0.028926326
13789000.0 -0.791893504 0.028969132
13813500.0 -0.79195232 0.028925122
13838000.0 -0.791845632 0.029145844
13862500.0 -0.792016384 0.029197374
13887000.0 -0.792018624 0.029103712
13911500.0 -0.791903296 0.029348684
13936000.0 -0.79196864 0.029303924
13960500.0 -0.792032512 0.029464862
13985000.0 -0.791834112 0.029461448
14009500.0 -0.791970176 0.029569844
14034000.0 -0.791893376 0.02956584
14058500.0 -0.791886272 0.029686234
14083000.0 -0.791873408 0.02962554
14107500.0 -0.79187712 0.029757742
14132000.0 -0.791991744 0.029704954
14156500.0 -0.791859264 0.02983173
14181000.0 -0.79185856 0.029914816
14205500.0 -0.791899456 0.029918714
14230000.0 -0.791820096 0.02997174
14254500.0 -0.791828032 0.030106488
14279000.0 -0.791840448 0.030127156
14303500.0 -0.791862784 0.030244182
14328000.0 -0.791821824 0.030227022
14352500.0 -0.79185216 0.030335586
14377000.0 -0.791893824 0.03031327
14401500.0 -0.79187584 0.030349984
14426000.0 -0.791892096 0.030460162
14450500.0 -0.791772096 0.03049829
14475000.0 -0.791816192 0.03061
14499500.0 -0.791780544 0.030651718
14524000.0 -0.791930944 0.030653948
14548500.0 -0.791756992 0.030682118
14573000.0 -0.791760448 0.030761166
14597500.0 -0.791797696 0.030768104
14622000.0 -0.791721536 0.030905152
14646500.0 -0.791831424 0.030953124
14671000.0 -0.791785408 0.031042572
14695500.0 -0.79178752 0.031068094
14720000.0 -0.79168736 0.031125822
14744500.0 -0.791732416 0.031278418
14769000.0 -0.791833792 0.031240858
14793500.0 -0.79181056 0.031321414
14818000.0 -0.791878592 0.031325772
14842500.0 -0.791751744 0.031365044
14867000.0 -0.7917296 0.031358928
14891500.0 -0.791779136 0.031535946
14916000.0 -0.791772992 0.031607264
