! Created with skrf (http://scikit-rf.org).
# Hz S RI R 50.0 
!freq ReS11 ImS11
1000000.0 -0.793483264 -0.001259381
1024500.0 -0.793449088 -0.001004625
1049000.0 -0.793530432 -0.001044336
1073500.0 -0.793516928 -0.000991948
1098000.0 -0.793422976 -0.000937968
1122500.0 -0.793531648 -0.000972679
1147000.0 -0.793460544 -0.000817297
1171500.0 -0.793470144 -0.00074134
1196000.0 -0.793482624 -0.000672139
1220500.0 -0.793449472 -0.000670309
1245000.0 -0.7935472 -0.000562779
1269500.0 -0.793491136 -0.000407434
1294000.0 -0.7934304 -0.000397736
1318500.0 -0.793454976 -0.00035171
1343000.0 -0.79353728 -0.000316763
1367500.0 -0.793467584 -0.000195969
1392000.0 -0.793477824 -0.000127567
1416500.0 -0.793460544 -0.000193184
1441000.0 -0.793470016 -6.902e-05
1465500.0 -0.793589568 -9.626e-06
1490000.0 -0.793454464 8.8001e-05
1514500.0 -0.793457152 0.000159257
1539000.0 -0.793541888 0.000221677
1563500.0 -0.793496192 0.000182098
1588000.0 -0.793414976 0.000258479
1612500.0 -0.793372544 0.00035764
1637000.0 -0.793443648 0.000460769
1661500.0 -0.793358528 0.000605937
1686000.0 -0.793459008 0.000585418
1710500.0 -0.79345408 0.000746852
1735000.0 -0.793426304 0.000782518
1759500.0 -0.79346464 0.000718634
1784000.0 -0.793508096 0.000890621
1808500.0 -0.7935376 0.000869211
1833000.0 -0.79340864 0.000932213
1857500.0 -0.793349312 0.001063527
1882000.0 -0.793411968 0.000993947
1906500.0 -0.793426432 0.001168171
1931000.0 -0.793451072 0.001240867
1955500.0 -0.793369088 0.001279374
1980000.0 -0.793369152 0.001312156
2004500.0 -0.793525248 0.001444407
2029000.0 -0.793438272 0.001397901
2053500.0 -0.793515648 0.001551343
2078000.0 -0.793459776 0.001531283
2102500.0 -0.793495104 0.00163529
2127000.0 -0.7933376 0.001714378
2151500.0 -0.793462528 0.001727077
2176000.0 -0.793299008 0.001765095
2200500.0 -0.793491584 0.001805998
2225000.0 -0.793368192 0.001871141
2249500.0 -0.793438144 0.001939251
2274000.0 -0.793378688 0.002036166
2298500.0 -0.793433536 0.002151108
2323000.0 -0.793485184 0.002215069
2347500.0 -0.793435072 0.002233317
2372000.0 -0.793347072 0.002285408
2396500.0 -0.793370688 0.002371374
2421000.0 -0.793388992 0.002512145
2445500.0 -0.793347072 0.002423234
2470000.0 -0.793391104 0.002575161
2494500.0 -0.793378688 0.002599969
2519000.0 -0.793395136 0.002652827
2543500.0 -0.793471168 0.002755887
2568000.0 -0.793353152 0.002718529
2592500.0 -0.793298304 0.002887356
2617000.0 -0.793417664 0.002940369
2641500.0 -0.793363776 0.00300089
2666000.0 -0.793322176 0.00302895
2690500.0 -0.793441984 0.003118165
2715000.0 -0.79332864 0.003137853
2739500.0 -0.793319808 0.00318766
2764000.0 -0.793369664 0.003212894
2788500.0 -0.793361088 0.00335911
2813000.0 -0.793267904 0.003323605
2837500.0 -0.793344832 0.003471259
2862000.0 -0.793490944 0.003446084
2886500.0 -0.793426304 0.003434774
2911000.0 -0.793285696 0.003538592
2935500.0 -0.793373376 0.003605796
2960000.0 -0.793348224 0.00363309
2984500.0 -0.79338176 0.003718825
3009000.0 -0.793456896 0.00388291
3033500.0 -0.793319808 0.003837288
3058000.0 -0.793294848 0.003966659
3082500.0 -0.793275456 0.004055437
3107000.0 -0.79329728 0.003958188
3131500.0 -0.793358464 0.004095201
3156000.0 -0.793339136 0.004088693
3180500.0 -0.793320704 0.004210132
3205000.0 -0.793372288 0.004363353
3229500.0 -0.793431424 0.004321876
3254000.0 -0.793348032 0.004373567
3278500.0 -0.793264 0.004428201
3303000.0 -0.793284864 0.004533593
3327500.0 -0.793319424 0.004552058
3352000.0 -0.79334848 0.004665602
3376500.0 -0.7932448 0.004707049
3401000.0 -0.793267072 0.004773422
3425500.0 -0.793203136 0.004953629
3450000.0 -0.79324928 0.00491253
3474500.0 -0.79324288 0.00493901
3499000.0 -0.79332384 0.005009738
3523500.0 -0.79333088 0.005025012
3548000.0 -0.79329056 0.005053293
3572500.0 -0.79326656 0.005206867
3597000.0 -0.793252928 0.005235327
3621500.0 -0.793256192 0.005293421
3646000.0 -0.793220608 0.005401158
3670500.0 -0.793300672 0.005346127
3695000.0 -0.793401792 0.005579753
3719500.0 -0.793215424 0.005469248
3744000.0 -0.793276672 0.005680398
3768500.0 -0.793248384 0.005691555
3793000.0 -0.793283008 0.005777446
3817500.0 -0.793336064 0.005775375
3842000.0 -0.79326912 0.005872397
3866500.0 -0.79335904 0.005844189
3891000.0 -0.793299648 0.005847286
3915500.0 -0.793305088 0.005980884
3940000.0 -0.793297344 0.00604448
3964500.0 -0.793268672 0.006054326
3989000.0 -0.793220096 0.006238287
4013500.0 -0.793238848 0.006252277
4038000.0 -0.793244288 0.006282103
4062500.0 -0.79322432 0.006373145
4087000.0 -0.793165248 0.0063048
4111500.0 -0.793279232 0.00647969
4136000.0 -0.793190592 0.006531937
4160500.0 -0.793182144 0.006585967
4185000.0 -0.793145152 0.006656694
4209500.0 -0.793212992 0.006706396
4234000.0 -0.793176512 0.006771854
4258500.0 -0.793192768 0.00679058
4283000.0 -0.79319168 0.006871362
4307500.0 -0.793143232 0.006872074
4332000.0 -0.793214528 0.007054489
4356500.0 -0.79323904 0.00701761
4381000.0 -0.793251904 0.007066378
4405500.0 -0.793147264 0.007183687
4430000.0 -0.793180928 0.007191563
4454500.0 -0.793158784 0.007314615
4479000.0 -0.793177664 0.007377581
4503500.0 -0.793200384 0.007308812
4528000.0 -0.79317152 0.007422599
4552500.0 -0.793139392 0.00755391
4577000.0 -0.793225792 0.007622398
4601500.0 -0.793208512 0.00766013
4626000.0 -0.793231168 0.007718478
4650500.0 -0.793212928 0.007682378
4675000.0 -0.793127232 0.007820821
4699500.0 -0.793213696 0.007784403
4724000.0 -0.793253056 0.007920728
4748500.0 -0.793234368 0.008030641
4773000.0 -0.7931344 0.007994094
4797500.0 -0.793166528 0.008089819
4822000.0 -0.793206528 0.008127764
4846500.0 -0.793183168 0.008208866
4871000.0 -0.793198656 0.008308125
4895500.0 -0.793156032 0.008361817
4920000.0 -0.793209152 0.00831679
4944500.0 -0.793106688 0.008473738
4969000.0 -0.79318784 0.008503295
4993500.0 -0.793220416 0.008636929
5018000.0 -0.793099712 0.008563968
5042500.0 -0.793148352 0.008632717
5067000.0 -0.793147328 0.008665795
5091500.0 -0.793172736 0.008701687
5116000.0 -0.793162944 0.008836206
5140500.0 -0.793177792 0.00894491
5165000.0 -0.793158144 0.008961983
5189500.0 -0.793185472 0.009012369
5214000.0 -0.793203264 0.009067999
5238500.0 -0.793221184 0.009187922
5263000.0 -0.79312896 0.009175103
5287500.0 -0.793117568 0.00929229
5312000.0 -0.79313472 0.0092496
5336500.0 -0.793113088 0.009351299
5361000.0 -0.793087104 0.009319992
5385500.0 -0.793080576 0.009411873
5410000.0 -0.7930896 0.009546737
5434500.0 -0.793120128 0.009591078
5459000.0 -0.793214144 0.009609286
5483500.0 -0.793061632 0.009707558
5508000.0 -0.793090112 0.009697147
5532500.0 -0.793046208 0.009808976
5557000.0 -0.793162432 0.010010342
5581500.0 -0.7930896 0.009992818
5606000.0 -0.793126016 0.009980555
5630500.0 -0.793156928 0.010028776
5655000.0 -0.793021248 0.010041117
5679500.0 -0.793033664 0.010162013
5704000.0 -0.793029568 0.010228001
5728500.0 -0.792982656 0.010359589
5753000.0 -0.793010944 0.010216945
5777500.0 -0.793024896 0.010382399
5802000.0 -0.793092032 0.010529208
5826500.0 -0.793129536 0.010506611
5851000.0 -0.793021888 0.010492068
5875500.0 -0.79308448 0.01062648
5900000.0 -0.793083712 0.010685722
5924500.0 -0.793126016 0.010768055
5949000.0 -0.793053952 0.010836777
5973500.0 -0.793111424 0.01091936
5998000.0 -0.793017408 0.010878244
6022500.0 -0.793071488 0.011021413
6047000.0 -0.793037568 0.010989333
6071500.0 -0.793067328 0.011150235
6096000.0 -0.792994496 0.011117033
6120500.0 -0.792964352 0.011153474
6145000.0 -0.793029824 0.011300542
6169500.0 -0.792997952 0.01135003
6194000.0 -0.7929344 0.011348348
6218500.0 -0.793038656 0.011381947
6243000.0 -0.793089024 0.011518163
6267500.0 -0.792934144 0.011576206
6292000.0 -0.792976768 0.011592478
6316500.0 -0.792949952 0.011713879
6341000.0 -0.793071424 0.011778332
6365500.0 -0.792995008 0.011808511
6390000.0 -0.792988608 0.011827546
6414500.0 -0.792991808 0.011905246
6439000.0 -0.79292384 0.011950868
6463500.0 -0.792961984 0.01194828
6488000.0 -0.793021888 0.011960989
6512500.0 -0.79303296 0.012075987
6537000.0 -0.793012352 0.012151478
6561500.0 -0.792936832 0.012265833
6586000.0 -0.792902848 0.012271058
6610500.0 -0.792952192 0.012321229
6635000.0 -0.792924416 0.012369751
6659500.0 -0.792950528 0.012548768
6684000.0 -0.792941504 0.012529521
6708500.0 -0.79295552 0.01245315
6733000.0 -0.7928848 0.01258438
6757500.0 -0.79286336 0.012615352
6782000.0 -0.792925568 0.012697584
6806500.0 -0.792940096 0.012766345
6831000.0 -0.792925248 0.01276577
6855500.0 -0.792893696 0.012873491
6880000.0 -0.792975232 0.012931349
6904500.0 -0.792950912 0.013036507
6929000.0 -0.792971392 0.013102594
6953500.0 -0.792998912 0.013174505
6978000.0 -0.79289952 0.013107908
7002500.0 -0.792966336 0.013216285
7027000.0 -0.792902336 0.013233641
7051500.0 -0.792944896 0.013304948
7076000.0 -0.792947392 0.01348703
7100500.0 -0.792834112 0.013490196
7125000.0 -0.792935744 0.013488108
7149500.0 -0.792774144 0.013609241
7174000.0 -0.79284032 0.013563125
7198500.0 -0.792869504 0.0137471
7223000.0 -0.792944064 0.013711026
7247500.0 -0.792907968 0.013714398
7272000.0 -0.792941568 0.013888522
7296500.0 -0.79282592 0.013878012
7321000.0 -0.792888256 0.013956249
7345500.0 -0.792885632 0.014028158
7370000.0 -0.792899264 0.014035298
7394500.0 -0.792845696 0.01414466
7419000.0 -0.792786752 0.014158998
7443500.0 -0.79293792 0.014150671
7468000.0 -0.792897728 0.01428972
7492500.0 -0.792882752 0.01440849
7517000.0 -0.792878912 0.014429952
7541500.0 -0.792867648 0.01445043
7566000.0 -0.792802816 0.01455224
7590500.0 -0.792867968 0.014636372
7615000.0 -0.792748096 0.014687385
7639500.0 -0.792775552 0.014591059
7664000.0 -0.792845952 0.014739849
7688500.0 -0.792828928 0.014806264
7713000.0 -0.792812992 0.014732228
7737500.0 -0.792771264 0.014833487
7762000.0 -0.792876736 0.014898073
7786500.0 -0.792818496 0.014899786
7811000.0 -0.792869312 0.015004012
7835500.0 -0.792774592 0.015143249
7860000.0 -0.79275456 0.01517611
7884500.0 -0.792841344 0.015206026
7909000.0 -0.79277984 0.01536302
7933500.0 -0.792739904 0.015451222
7958000.0 -0.79272288 0.015464997
7982500.0 -0.792787264 0.015444419
8007000.0 -0.79281408 0.01546977
8031500.0 -0.792826624 0.015544358
8056000.0 -0.792846528 0.01567152
8080500.0 -0.792762304 0.015585367
8105000.0 -0.792897536 0.015736361
8129500.0 -0.792800576 0.015864414
8154000.0 -0.792722816 0.015809995
8178500.0 -0.792810496 0.015944314
8203000.0 -0.792811072 0.015894766
8227500.0 -0.79281312 0.015998779
8252000.0 -0.792819712 0.01605001
8276500.0 -0.792831872 0.016122012
8301000.0 -0.792715712 0.016179661
8325500.0 -0.792758784 0.016190617
8350000.0 -0.792791232 0.016240905
8374500.0 -0.79276992 0.016405924
8399000.0 -0.792856896 0.01636437
8423500.0 -0.79271968 0.016437913
8448000.0 -0.792763648 0.01649675
8472500.0 -0.79272192 0.016608809
8497000.0 -0.79274848 0.016606244
8521500.0 -0.792763264 0.016680409
8546000.0 -0.79269472 0.016771736
8570500.0 -0.7927632 0.016841436
8595000.0 -0.792732864 0.016921374
8619500.0 -0.792676864 0.016993914
8644000.0 -0.7927984 0.016887692
8668500.0 -0.792690048 0.017130272
8693000.0 -0.792748288 0.017130604
8717500.0 -0.79273952 0.01706545
8742000.0 -0.792616192 0.017043004
8766500.0 -0.792712448 0.017198988
8791000.0 -0.792705344 0.017243012
8815500.0 -0.792671296 0.017248894
8840000.0 -0.792671872 0.017408038
8864500.0 -0.792627904 0.017423114
8889000.0 -0.792710656 0.017505808
8913500.0 -0.792776512 0.01755057
8938000.0 -0.792592192 0.017631564
8962500.0 -0.792633536 0.017730056
8987000.0 -0.792671168 0.017736986
9011500.0 -0.792689792 0.017861408
9036000.0 -0.792776 0.017971662
9060500.0 -0.792634176 0.017851406
9085000.0 -0.792644864 0.017876106
9109500.0 -0.792672384 0.018029648
9134000.0 -0.792589696 0.018053752
9158500.0 -0.792594368 0.018095682
9183000.0 -0.792582656 0.018143294
9207500.0 -0.792687744 0.018213334
9232000.0 -0.792653184 0.018329128
9256500.0 -0.792621952 0.018395954
9281000.0 -0.792660864 0.018438046
9305500.0 -0.79258208 0.018442538
9330000.0 -0.792597952 0.01850734
9354500.0 -0.792552768 0.01858324
9379000.0 -0.792490688 0.018718516
9403500.0 -0.792696448 0.018741558
9428000.0 -0.792708032 0.018762564
9452500.0 -0.792633536 0.018823152
9477000.0 -0.792476224 0.01883779
9501500.0 -0.792637504 0.018877302
9526000.0 -0.792490368 0.019001672
9550500.0 -0.792611136 0.018992448
9575000.0 -0.792599552 0.019057018
9599500.0 -0.792646336 0.01921346
9624000.0 -0.792645376 0.01933626
9648500.0 -0.792632192 0.019268758
9673000.0 -0.792617216 0.01929232
9697500.0 -0.792599744 0.01938853
9722000.0 -0.792507392 0.019430378
9746500.0 -0.792549056 0.019501402
9771000.0 -0.792537664 0.01953122
9795500.0 -0.792632832 0.019533828
9820000.0 -0.792502976 0.019562802
9844500.0 -0.792551552 0.01961567
9869000.0 -0.792588352 0.01974969
9893500.0 -0.792552576 0.01968475
9918000.0 -0.792417088 0.019912168
9942500.0 -0.792561408 0.019922008
9967000.0 -0.792496 0.020038094
9991500.0 -0.792528128 0.020055288
10016000.0 -0.792501632 0.020098206
10040500.0 -0.792605568 0.020107188
10065000.0 -0.792498496 0.020218072
10089500.0 -0.79248384 0.020291544
10114000.0 -0.79259904 0.02039193
10138500.0 -0.792507072 0.020397636
10163000.0 -0.792456768 0.020448932
10187500.0 -0.792565312 0.020424018
10212000.0 -0.792553856 0.020471432
10236500.0 -0.792536 0.02049896
10261000.0 -0.792562752 0.02064392
10285500.0 -0.792501376 0.020737144
10310000.0 -0.792526464 0.020731978
10334500.0 -0.792520768 0.02079946
10359000.0 -0.792505856 0.020789372
10383500.0 -0.79246336 0.020945008
10408000.0 -0.79245344 0.021017538
10432500.0 -0.792465344 0.021057012
10457000.0 -0.792453888 0.021082514
10481500.0 -0.792568512 0.02114413
10506000.0 -0.792486848 0.021216796
10530500.0 -0.79251584 0.021259904
10555000.0 -0.792497024 0.021368202
10579500.0 -0.792454912 0.021342516
10604000.0 -0.792522624 0.021473752
10628500.0 -0.79246432 0.021477296
10653000.0 -0.792353088 0.02149158
10677500.0 -0.79241536 0.0216311
10702000.0 -0.792436608 0.021668288
10726500.0 -0.792408576 0.021660558
10751000.0 -0.792387456 0.021774002
10775500.0 -0.792445952 0.021762298
10800000.0 -0.792465152 0.021827358
10824500.0 -0.79247232 0.021911192
10849000.0 -0.792541056 0.021857948
10873500.0 -0.792510848 0.022113578
10898000.0 -0.792534656 0.02195844
10922500.0 -0.79246624 0.022158084
10947000.0 -0.792439488 0.022208788
10971500.0 -0.792463488 0.022252916
10996000.0 -0.792438144 0.022278238
11020500.0 -0.792373696 0.02232999
11045000.0 -0.792397888 0.022385172
11069500.0 -0.79245056 0.022509788
11094000.0 -0.7924288 0.02252659
11118500.0 -0.792413504 0.022643926
11143000.0 -0.792431232 0.022611932
11167500.0 -0.792397312 0.022653802
11192000.0 -0.792456512 0.02275154
11216500.0 -0.792391808 0.022702378
11241000.0 -0.792351296 0.022830232
11265500.0 -0.79249888 0.022873364
11290000.0 -0.79234976 0.02291176
11314500.0 -0.792401024 0.022988386
11339000.0 -0.792264384 0.023147026
11363500.0 -0.792467584 0.02317483
11388000.0 -0.792346368 0.023178464
11412500.0 -0.792356352 0.023184738
11437000.0 -0.792368256 0.023239652
11461500.0 -0.79235584 0.023306346
11486000.0 -0.79244096 0.023407742
11510500.0 -0.79238848 0.023412022
11535000.0 -0.792361152 0.023504712
11559500.0 -0.792323456 0.023594526
11584000.0 -0.792398976 0.023619232
11608500.0 -0.792300224 0.023677808
11633000.0 -0.792333632 0.023639822
11657500.0 -0.792329472 0.023767556
11682000.0 -0.792370048 0.023803462
11706500.0 -0.792347904 0.023913452
11731000.0 -0.792334912 0.024014978
11755500.0 -0.79246304 0.024027562
11780000.0 -0.792302464 0.024056
11804500.0 -0.792333888 0.024189898
11829000.0 -0.792418816 0.02423175
11853500.0 -0.79242304 0.024247856
11878000.0 -0.79236832 0.024292848
11902500.0 -0.792437312 0.024300236
11927000.0 -0.7923056 0.024377956
11951500.0 -0.792377408 0.02447334
11976000.0 -0.792272896 0.024505468
12000500.0 -0.792344832 0.024512222
12025000.0 -0.792374912 0.024707574
12049500.0 -0.792282048 0.024692104
12074000.0 -0.79239616 0.024822406
12098500.0 -0.792384256 0.024891946
12123000.0 -0.792277504 0.024868086
12147500.0 -0.792376128 0.025009872
12172000.0 -0.79229952 0.024959324
12196500.0 -0.792265792 0.025016952
12221000.0 -0.792327744 0.025082752
12245500.0 -0.792154496 0.025173888
12270000.0 -0.792240896 0.025211064
12294500.0 -0.792294656 0.025237692
12319000.0 -0.792283584 0.02528895
12343500.0 -0.792340032 0.02539482
12368000.0 -0.792318848 0.025440926
12392500.0 -0.792244928 0.025477352
12417000.0 -0.79215648 0.025573704
12441500.0 -0.792242368 0.025634694
12466000.0 -0.792197952 0.025492714
12490500.0 -0.792198464 0.02572924
12515000.0 -0.792205312 0.025766132
12539500.0 -0.792278208 0.025848898
12564000.0 -0.792174656 0.025880484
12588500.0 -0.79223616 0.025941282
12613000.0 -0.792180928 0.025971634
12637500.0 -0.79224928 0.025969744
12662000.0 -0.792206464 0.025975604
12686500.0 -0.792178368 0.026177326
12711000.0 -0.792250432 0.026167188
12735500.0 -0.792241344 0.02632226
12760000.0 -0.79225408 0.02621464
12784500.0 -0.792173952 0.026391754
12809000.0 -0.792110016 0.026393342
12833500.0 -0.792168 0.026375402
12858000.0 -0.79227424 0.026526046
12882500.0 -0.79220544 0.026563538
12907000.0 -0.79213824 0.026736992
12931500.0 -0.792225152 0.026612224
12956000.0 -0.792068992 0.026729314
12980500.0 -0.792104576 0.026812018
13005000.0 -0.792130496 0.026865816
13029500.0 -0.792175104 0.026795716
13054000.0 -0.792141568 0.027010322
13078500.0 -0.792110656 0.027107026
13103000.0 -0.79211136 0.027104288
13127500.0 -0.79211744 0.027164736
13152000.0 -0.792150656 0.027152798
13176500.0 -0.792135872 0.02722866
13201000.0 -0.792149632 0.0273386
13225500.0 -0.792263104 0.027458478
13250000.0 -0.792208384 0.027447916
13274500.0 -0.792159488 0.027399332
13299000.0 -0.792195648 0.027509894
13323500.0 -0.792115392 0.027579246
13348000.0 -0.792179776 0.027623788
13372500.0 -0.792184256 0.027734066
13397000.0 -0.79220608 0.027746362
13421500.0 -0.792174848 0.027805248
13446000.0 -0.792073344 0.02787695
13470500.0 -0.79206432 0.027838154
13495000.0 -0.792131456 0.02797093
13519500.0 -0.792087168 0.028016702
13544000.0 -0.792166144 0.02817466
13568500.0 -0.792084544 0.028185056
13593000.0 -0.792037632 0.028218988
13617500.0 -0.792140928 0.028283646
13642000.0 -0.792022592 0.028278072
13666500.0 -0.792059072 0.028283256
13691000.0 -0.792151488 0.028449792
13715500.0 -0.792137472 0.028425838
13740000.0 -0.792123008 0.028400816
13764500.0 -0.792066048 0.02859726
13789000.0 -0.792024 0.028667172
13813500.0 -0.79201888 0.02866203
13838000.0 -0.792072384 0.028742858
13862500.0 -0.792044288 0.028777408
13887000.0 -0.792042432 0.028837968
13911500.0 -0.792099712 0.028966404
13936000.0 -0.792029248 0.029051116
13960500.0 -0.79201248 0.029006518
13985000.0 -0.792052672 0.029144092
14009500.0 -0.791985088 0.029036496
14034000.0 -0.791988224 0.029227278
14058500.0 -0.7920368 0.029246576
14083000.0 -0.791928 0.029195806
14107500.0 -0.7920016 0.02942664
14132000.0 -0.792031616 0.029417092
14156500.0 -0.792000704 0.029481922
14181000.0 -0.791967808 0.029595546
14205500.0 -0.791991872 0.02960104
14230000.0 -0.792034752 0.02964604
14254500.0 -0.792020032 0.029674024
14279000.0 -0.791990528 0.029651404
14303500.0 -0.792057152 0.029805072
14328000.0 -0.792043776 0.029840984
14352500.0 -0.791930048 0.029871278
14377000.0 -0.791989248 0.02998925
14401500.0 -0.791907648 0.030018882
14426000.0 -0.79196864 0.030115236
14450500.0 -0.791976 0.030032268
14475000.0 -0.791896576 0.030195562
14499500.0 -0.792017152 0.030279576
14524000.0 -0.791949568 0.030340918
14548500.0 -0.791921728 0.030356398
14573000.0 -0.791961792 0.030497612
14597500.0 -0.791942784 0.030495318
14622000.0 -0.791943744 0.030512922
14646500.0 -0.791942464 0.030631268
14671000.0 -0.791988288 0.030565698
14695500.0 -0.791965632 0.030665762
14720000.0 -0.791922944 0.030727414
14744500.0 -0.79194048 0.030819084
14769000.0 -0.791930752 0.030833512
14793500.0 -0.791884224 0.03092242
14818000.0 -0.791909312 0.03105234
14842500.0 -0.791915648 0.031124086
14867000.0 -0.791851264 0.031110546
14891500.0 -0.791971968 0.031170942
14916000.0 -0.791878016 0.031171928
