! Created with skrf (http://scikit-rf.org).
# Hz S RI R 50.0 
!freq ReS11 ImS11
1000000.0 -0.012011716 -0.000240488
1024500.0 -0.011932073 -5.0717e-05
1049000.0 -0.011949163 -7.4776e-05
1073500.0 -0.011889219 -0.000108694
1098000.0 -0.011890814 -0.000144278
1122500.0 -0.011867784 -8.9157e-05
1147000.0 -0.011857741 -0.000189764
1171500.0 -0.011901896 -0.000103533
1196000.0 -0.01189817 -0.000175486
1220500.0 -0.011866793 -0.000126779
1245000.0 -0.011860662 -0.000162534
1269500.0 -0.011846495 -0.000163036
1294000.0 -0.011878275 -0.000136544
1318500.0 -0.011869061 -0.000143004
1343000.0 -0.011867724 -0.000160531
1367500.0 -0.011865494 -0.000196412
1392000.0 -0.011944057 -0.000166395
1416500.0 -0.011838881 -0.000166795
1441000.0 -0.011886065 -0.00013577
1465500.0 -0.011904038 -0.00020025
1490000.0 -0.011895558 -0.000128418
1514500.0 -0.011916518 -0.000181422
1539000.0 -0.011929664 -0.000154537
1563500.0 -0.011879191 -0.000149847
1588000.0 -0.011901732 -0.000150711
1612500.0 -0.011897088 -0.000177963
1637000.0 -0.011904339 -0.000160294
1661500.0 -0.011875108 -0.000172003
1686000.0 -0.011906283 -0.00021395
1710500.0 -0.011902213 -0.000190083
1735000.0 -0.011888871 -0.000172011
1759500.0 -0.011901744 -0.000206997
1784000.0 -0.011919174 -0.000191654
1808500.0 -0.01187841 -0.000205812
1833000.0 -0.011908895 -0.000139155
1857500.0 -0.011852787 -0.000181263
1882000.0 -0.011941616 -0.000136576
1906500.0 -0.011778972 -0.000215756
1931000.0 -0.011857639 -0.000203218
1955500.0 -0.011902687 -0.000230258
1980000.0 -0.011912514 -0.000237512
2004500.0 -0.011881284 -0.000225609
2029000.0 -0.01192664 -0.000190993
2053500.0 -0.011872682 -0.000214145
2078000.0 -0.01189814 -0.00018143
2102500.0 -0.011884318 -0.000277885
2127000.0 -0.011857698 -0.000184214
2151500.0 -0.011892598 -0.000252628
2176000.0 -0.011924483 -0.000160542
2200500.0 -0.011915637 -0.000218322
2225000.0 -0.011857229 -0.000264832
2249500.0 -0.011833329 -0.000197902
2274000.0 -0.011862369 -0.000262619
2298500.0 -0.011868509 -0.000204505
2323000.0 -0.01191647 -0.000260449
2347500.0 -0.011899123 -0.00019935
2372000.0 -0.011914972 -0.00028073
2396500.0 -0.01189648 -0.000262428
2421000.0 -0.011824845 -0.000218329
2445500.0 -0.01184651 -0.000268011
2470000.0 -0.011899207 -0.000222286
2494500.0 -0.011895901 -0.000236007
2519000.0 -0.01186045 -0.000224914
2543500.0 -0.011905063 -0.000293883
2568000.0 -0.011829946 -0.000302136
2592500.0 -0.011868471 -0.000273029
2617000.0 -0.01189285 -0.000273573
2641500.0 -0.011891915 -0.000290472
2666000.0 -0.011825209 -0.000248858
2690500.0 -0.011925452 -0.000276572
2715000.0 -0.011906563 -0.000268074
2739500.0 -0.011869212 -0.000288295
2764000.0 -0.011892449 -0.000229553
2788500.0 -0.011880181 -0.000273974
2813000.0 -0.011812786 -0.000256526
2837500.0 -0.01186008 -0.000308307
2862000.0 -0.011878931 -0.00028863
2886500.0 -0.011896393 -0.000285619
2911000.0 -0.011859567 -0.000251896
2935500.0 -0.011918186 -0.000310206
2960000.0 -0.011874157 -0.000317942
2984500.0 -0.011830297 -0.000325324
3009000.0 -0.011866143 -0.000323959
3033500.0 -0.011850857 -0.000341231
3058000.0 -0.011903508 -0.000306136
3082500.0 -0.011873465 -0.000371728
3107000.0 -0.011852206 -0.000314878
3131500.0 -0.011860559 -0.000355779
3156000.0 -0.011846194 -0.000304331
3180500.0 -0.011907636 -0.000305127
3205000.0 -0.011874743 -0.000336145
3229500.0 -0.011836327 -0.000343574
3254000.0 -0.011863044 -0.000350489
3278500.0 -0.011887046 -0.000325516
3303000.0 -0.011873548 -0.00030409
3327500.0 -0.01186117 -0.000332434
3352000.0 -0.011858738 -0.000316241
3376500.0 -0.011903759 -0.000395308
3401000.0 -0.011894105 -0.000322461
3425500.0 -0.011869339 -0.000327249
3450000.0 -0.011875636 -0.000356981
3474500.0 -0.011834074 -0.00032325
3499000.0 -0.011852718 -0.000295965
3523500.0 -0.011893249 -0.000288606
3548000.0 -0.01191934 -0.000345309
3572500.0 -0.011878373 -0.000333995
3597000.0 -0.01187933 -0.000344501
3621500.0 -0.01191832 -0.00035022
3646000.0 -0.011829771 -0.000409673
3670500.0 -0.011863756 -0.00033204
3695000.0 -0.011880881 -0.000390752
3719500.0 -0.011830001 -0.000404781
3744000.0 -0.011815928 -0.000359766
3768500.0 -0.011887469 -0.000381088
3793000.0 -0.011885057 -0.000385103
3817500.0 -0.011922173 -0.000365157
3842000.0 -0.011803322 -0.000381887
3866500.0 -0.011849154 -0.000408946
3891000.0 -0.011921103 -0.000370982
3915500.0 -0.011840161 -0.000385782
3940000.0 -0.011862017 -0.000435681
3964500.0 -0.01185999 -0.000436216
3989000.0 -0.011855427 -0.000404934
4013500.0 -0.011867636 -0.000443357
4038000.0 -0.01188931 -0.000355118
4062500.0 -0.011824622 -0.000390348
4087000.0 -0.011861849 -0.000362076
4111500.0 -0.01186003 -0.000421326
4136000.0 -0.011885714 -0.000453029
4160500.0 -0.011891048 -0.000402664
4185000.0 -0.011891963 -0.000404417
4209500.0 -0.011919607 -0.000441205
4234000.0 -0.011856521 -0.000474897
4258500.0 -0.011899561 -0.000431383
4283000.0 -0.011894338 -0.000457091
4307500.0 -0.011883799 -0.000481144
4332000.0 -0.011890281 -0.000456853
4356500.0 -0.011877925 -0.000489775
4381000.0 -0.011864146 -0.000443809
4405500.0 -0.011861781 -0.000501155
4430000.0 -0.011870757 -0.000457104
4454500.0 -0.011826736 -0.000432158
4479000.0 -0.011920844 -0.000493459
4503500.0 -0.011936641 -0.00039469
4528000.0 -0.011864268 -0.000449128
4552500.0 -0.011866209 -0.000423683
4577000.0 -0.011858239 -0.000475825
4601500.0 -0.011856604 -0.000456165
4626000.0 -0.01182865 -0.000480786
4650500.0 -0.011892824 -0.000433118
4675000.0 -0.011905772 -0.000488199
4699500.0 -0.01191412 -0.000482076
4724000.0 -0.011935127 -0.000515861
4748500.0 -0.011913682 -0.00050788
4773000.0 -0.011884129 -0.000494575
4797500.0 -0.011937059 -0.000467494
4822000.0 -0.011907287 -0.000519528
4846500.0 -0.011861589 -0.000460711
4871000.0 -0.011889326 -0.000492195
4895500.0 -0.011932034 -0.00048872
4920000.0 -0.011892942 -0.000489359
4944500.0 -0.011885515 -0.000537163
4969000.0 -0.011881927 -0.000532838
4993500.0 -0.011861485 -0.000528741
5018000.0 -0.011900842 -0.000492852
5042500.0 -0.011905428 -0.00056115
5067000.0 -0.011895461 -0.000503347
5091500.0 -0.011820869 -0.000474624
5116000.0 -0.011938052 -0.000487187
5140500.0 -0.01185021 -0.000526303
5165000.0 -0.011864267 -0.000519852
5189500.0 -0.011825762 -0.000546962
5214000.0 -0.011918254 -0.000480835
5238500.0 -0.011883148 -0.000487207
5263000.0 -0.011890103 -0.00050824
5287500.0 -0.011891137 -0.000528306
5312000.0 -0.011958709 -0.000566049
5336500.0 -0.011910101 -0.000547534
5361000.0 -0.011893922 -0.00055517
5385500.0 -0.011906291 -0.000548179
5410000.0 -0.011882132 -0.000574624
5434500.0 -0.01192736 -0.000585554
5459000.0 -0.01192189 -0.000554267
5483500.0 -0.011900099 -0.000567837
5508000.0 -0.011874943 -0.000523014
5532500.0 -0.011866381 -0.000546744
5557000.0 -0.011815187 -0.000628499
5581500.0 -0.011918963 -0.000570967
5606000.0 -0.011901259 -0.000565794
5630500.0 -0.011865596 -0.000588917
5655000.0 -0.011874985 -0.000596818
5679500.0 -0.011864404 -0.000614833
5704000.0 -0.011883888 -0.000613884
5728500.0 -0.011885207 -0.000615099
5753000.0 -0.011858653 -0.000539576
5777500.0 -0.011893938 -0.00053329
5802000.0 -0.01186864 -0.000584064
5826500.0 -0.011894514 -0.000578731
5851000.0 -0.011881982 -0.000605242
5875500.0 -0.011888593 -0.000594019
5900000.0 -0.011894741 -0.000579295
5924500.0 -0.011889756 -0.000644976
5949000.0 -0.011906178 -0.000605988
5973500.0 -0.011851183 -0.000540451
5998000.0 -0.011900311 -0.000596829
6022500.0 -0.011883051 -0.000608182
6047000.0 -0.011875863 -0.000563668
6071500.0 -0.011802226 -0.000571733
6096000.0 -0.011873352 -0.000597772
6120500.0 -0.01185646 -0.000595419
6145000.0 -0.01188724 -0.000649652
6169500.0 -0.011892702 -0.000545356
6194000.0 -0.011886999 -0.000618834
6218500.0 -0.01188429 -0.000581767
6243000.0 -0.011844074 -0.000591894
6267500.0 -0.011897361 -0.000592701
6292000.0 -0.011857091 -0.000660205
6316500.0 -0.011900766 -0.000666286
6341000.0 -0.011920058 -0.000612182
6365500.0 -0.011888207 -0.000641441
6390000.0 -0.01187299 -0.000646936
6414500.0 -0.011886507 -0.000589191
6439000.0 -0.01190026 -0.000651503
6463500.0 -0.011871991 -0.000653847
6488000.0 -0.011892804 -0.00062882
6512500.0 -0.011887408 -0.000692054
6537000.0 -0.011872821 -0.000620505
6561500.0 -0.01186224 -0.000649062
6586000.0 -0.011874808 -0.000688806
6610500.0 -0.011895439 -0.000685012
6635000.0 -0.011896585 -0.000682601
6659500.0 -0.01189331 -0.000672565
6684000.0 -0.011921624 -0.000728147
6708500.0 -0.011914143 -0.000686042
6733000.0 -0.011908918 -0.000667832
6757500.0 -0.011862751 -0.000661981
6782000.0 -0.011901585 -0.000693908
6806500.0 -0.011872697 -0.00068713
6831000.0 -0.011925317 -0.000642244
6855500.0 -0.011853376 -0.000685998
6880000.0 -0.011840226 -0.000664875
6904500.0 -0.01195459 -0.000704527
6929000.0 -0.011854671 -0.000650479
6953500.0 -0.01197757 -0.000663299
6978000.0 -0.011892649 -0.000660863
7002500.0 -0.011894922 -0.000689622
7027000.0 -0.011880551 -0.000751394
7051500.0 -0.011903994 -0.000740439
7076000.0 -0.011903182 -0.000749712
7100500.0 -0.011854485 -0.000742819
7125000.0 -0.011861621 -0.000726243
7149500.0 -0.011847063 -0.000671183
7174000.0 -0.011781663 -0.000720175
7198500.0 -0.011862898 -0.000755293
7223000.0 -0.011895256 -0.00074242
7247500.0 -0.011903578 -0.000724546
7272000.0 -0.01191163 -0.00074265
7296500.0 -0.011841754 -0.000748972
7321000.0 -0.011866555 -0.000727497
7345500.0 -0.011899992 -0.000718135
7370000.0 -0.011912685 -0.000770153
7394500.0 -0.011883795 -0.000792513
7419000.0 -0.01187307 -0.000782863
7443500.0 -0.011859887 -0.000751693
7468000.0 -0.0118592 -0.000794384
7492500.0 -0.011905384 -0.000783567
7517000.0 -0.011873724 -0.000738751
7541500.0 -0.011893195 -0.000791125
7566000.0 -0.011842505 -0.000815285
7590500.0 -0.011897082 -0.000789534
7615000.0 -0.01194561 -0.000789753
7639500.0 -0.011896651 -0.000838669
7664000.0 -0.011880557 -0.000809939
7688500.0 -0.011827886 -0.000787732
7713000.0 -0.011901525 -0.000850343
7737500.0 -0.011898308 -0.000771635
7762000.0 -0.011894572 -0.000842249
7786500.0 -0.011882888 -0.000775727
7811000.0 -0.011875978 -0.000787942
7835500.0 -0.011875505 -0.000794615
7860000.0 -0.01190327 -0.000816153
7884500.0 -0.011928967 -0.000815809
7909000.0 -0.011930871 -0.000880356
7933500.0 -0.011847125 -0.000793296
7958000.0 -0.01188481 -0.000825551
7982500.0 -0.011900994 -0.000828063
8007000.0 -0.01192728 -0.00085861
8031500.0 -0.011860988 -0.000853744
8056000.0 -0.011902662 -0.000830316
8080500.0 -0.011854277 -0.000784898
8105000.0 -0.011888205 -0.000797081
8129500.0 -0.011884476 -0.000791645
8154000.0 -0.011854867 -0.00087165
8178500.0 -0.011833566 -0.000838865
8203000.0 -0.011879689 -0.000812286
8227500.0 -0.011913031 -0.000868728
8252000.0 -0.011903598 -0.00087025
8276500.0 -0.011921935 -0.000808106
8301000.0 -0.011851704 -0.000820275
8325500.0 -0.011889227 -0.000901078
8350000.0 -0.01190452 -0.000881019
8374500.0 -0.011849866 -0.000904761
8399000.0 -0.011884748 -0.000874863
8423500.0 -0.011872941 -0.000819457
8448000.0 -0.011905426 -0.000887401
8472500.0 -0.011934666 -0.00089067
8497000.0 -0.011873108 -0.000881002
8521500.0 -0.011868812 -0.000835378
8546000.0 -0.011884241 -0.00089594
8570500.0 -0.011902042 -0.00083951
8595000.0 -0.011848379 -0.000854839
8619500.0 -0.011897183 -0.0008345
8644000.0 -0.011901835 -0.000891302
8668500.0 -0.011836721 -0.000888337
8693000.0 -0.011960809 -0.000895522
8717500.0 -0.011950727 -0.000854802
8742000.0 -0.011905759 -0.000886888
8766500.0 -0.011879997 -0.000938364
8791000.0 -0.011871968 -0.000901715
8815500.0 -0.011880586 -0.000896544
8840000.0 -0.011877702 -0.000916323
8864500.0 -0.011931457 -0.000889707
8889000.0 -0.011878389 -0.000947204
8913500.0 -0.011889977 -0.000890089
8938000.0 -0.011813057 -0.000878777
8962500.0 -0.011897894 -0.00092404
8987000.0 -0.011924018 -0.000939727
9011500.0 -0.011942094 -0.000900525
9036000.0 -0.011918327 -0.000960568
9060500.0 -0.011925404 -0.000901442
9085000.0 -0.011976331 -0.000969807
9109500.0 -0.01188549 -0.000942777
9134000.0 -0.011902896 -0.00095801
9158500.0 -0.011957011 -0.000926365
9183000.0 -0.011882803 -0.000965547
9207500.0 -0.011920909 -0.000931893
9232000.0 -0.011843673 -0.000944877
9256500.0 -0.011927456 -0.000860524
9281000.0 -0.011846995 -0.000972068
9305500.0 -0.011921557 -0.000970151
9330000.0 -0.011879558 -0.000917793
9354500.0 -0.01189945 -0.000910485
9379000.0 -0.01194581 -0.000958373
9403500.0 -0.011935797 -0.000954506
9428000.0 -0.011919504 -0.00088587
9452500.0 -0.011861433 -0.000989291
9477000.0 -0.011864952 -0.000980658
9501500.0 -0.011893658 -0.001026182
9526000.0 -0.01196573 -0.000917545
9550500.0 -0.01189755 -0.001006241
9575000.0 -0.011856161 -0.001038587
9599500.0 -0.01181875 -0.000949045
9624000.0 -0.01189295 -0.000961918
9648500.0 -0.011877227 -0.000955871
9673000.0 -0.011866188 -0.000999794
9697500.0 -0.011860061 -0.000934309
9722000.0 -0.011847584 -0.001030165
9746500.0 -0.011946009 -0.001008783
9771000.0 -0.011924589 -0.000970752
9795500.0 -0.01190972 -0.000937338
9820000.0 -0.011920414 -0.000975291
9844500.0 -0.011896628 -0.001064405
9869000.0 -0.011832905 -0.000999779
9893500.0 -0.011939364 -0.001023952
9918000.0 -0.011878855 -0.000981034
9942500.0 -0.011870069 -0.001033426
9967000.0 -0.01188317 -0.001014398
9991500.0 -0.011923472 -0.001011936
10016000.0 -0.01193435 -0.001012611
10040500.0 -0.011920514 -0.00099244
10065000.0 -0.011922719 -0.000980696
10089500.0 -0.011871925 -0.001000163
10114000.0 -0.011892916 -0.000993348
10138500.0 -0.011928064 -0.001043214
10163000.0 -0.011903977 -0.001108194
10187500.0 -0.011940031 -0.001068301
10212000.0 -0.01192686 -0.001044493
10236500.0 -0.011931172 -0.001086233
10261000.0 -0.011898954 -0.001086892
10285500.0 -0.011855533 -0.001079406
10310000.0 -0.011864952 -0.001089862
10334500.0 -0.011841947 -0.001043641
10359000.0 -0.01194207 -0.001040532
10383500.0 -0.011950098 -0.001032011
10408000.0 -0.011825922 -0.001075157
10432500.0 -0.01192437 -0.001081956
10457000.0 -0.011871284 -0.001043532
10481500.0 -0.011911007 -0.001006351
10506000.0 -0.011940696 -0.001055452
10530500.0 -0.011945161 -0.001076294
10555000.0 -0.011899337 -0.001072583
10579500.0 -0.011914659 -0.001062352
10604000.0 -0.011917626 -0.001100689
10628500.0 -0.011882386 -0.001123888
10653000.0 -0.011871742 -0.00110948
10677500.0 -0.011945398 -0.001079603
10702000.0 -0.01188084 -0.001103393
10726500.0 -0.011950483 -0.001133699
10751000.0 -0.011882821 -0.001077405
10775500.0 -0.011910919 -0.00110132
10800000.0 -0.011927466 -0.001108613
10824500.0 -0.011914469 -0.001068492
10849000.0 -0.011841641 -0.001089264
10873500.0 -0.011839185 -0.001108603
10898000.0 -0.011907462 -0.001080702
10922500.0 -0.011955862 -0.001115655
10947000.0 -0.011916767 -0.001091284
10971500.0 -0.011900247 -0.001147102
10996000.0 -0.011901632 -0.001119577
11020500.0 -0.011914558 -0.001103718
11045000.0 -0.011960195 -0.001114823
11069500.0 -0.011879305 -0.001122214
11094000.0 -0.011941111 -0.001114549
11118500.0 -0.011945725 -0.00116649
11143000.0 -0.011942049 -0.001104675
11167500.0 -0.011967302 -0.001153108
11192000.0 -0.011909455 -0.001125177
11216500.0 -0.011901113 -0.001129389
11241000.0 -0.011853432 -0.0010715
11265500.0 -0.011888934 -0.001127677
11290000.0 -0.011923324 -0.001142711
11314500.0 -0.011882565 -0.001181978
11339000.0 -0.011918989 -0.001181816
11363500.0 -0.011934402 -0.001133132
11388000.0 -0.011929571 -0.001193905
11412500.0 -0.011940935 -0.001111361
11437000.0 -0.011897943 -0.001236775
11461500.0 -0.011937133 -0.001150243
11486000.0 -0.011932773 -0.001171921
11510500.0 -0.01188501 -0.001218555
11535000.0 -0.011920161 -0.001125108
11559500.0 -0.011958677 -0.001153051
11584000.0 -0.011868623 -0.001168067
11608500.0 -0.011916764 -0.001223097
11633000.0 -0.011925994 -0.001195202
11657500.0 -0.011912772 -0.001253801
11682000.0 -0.011937482 -0.001182498
11706500.0 -0.011923057 -0.001158247
11731000.0 -0.01196019 -0.001165912
11755500.0 -0.011918296 -0.001185737
11780000.0 -0.011890128 -0.001218622
11804500.0 -0.011960795 -0.001196975
11829000.0 -0.011956571 -0.00115032
11853500.0 -0.011891701 -0.001175316
11878000.0 -0.011927007 -0.001198938
11902500.0 -0.011942575 -0.001202827
11927000.0 -0.011961188 -0.001195967
11951500.0 -0.011908726 -0.001207276
11976000.0 -0.011986993 -0.001251661
12000500.0 -0.011865752 -0.001199951
12025000.0 -0.011897169 -0.001234912
12049500.0 -0.011962517 -0.00126414
12074000.0 -0.011983262 -0.001199847
12098500.0 -0.011949678 -0.001204421
12123000.0 -0.011930398 -0.001164911
12147500.0 -0.011954367 -0.001232873
12172000.0 -0.011952134 -0.001152725
12196500.0 -0.011903991 -0.001214053
12221000.0 -0.011926499 -0.001290556
12245500.0 -0.011873927 -0.001217506
12270000.0 -0.01189134 -0.001177038
12294500.0 -0.01194285 -0.001255027
12319000.0 -0.011951441 -0.001253596
12343500.0 -0.011952831 -0.001277445
12368000.0 -0.011903659 -0.001227257
12392500.0 -0.011860382 -0.001288823
12417000.0 -0.011894466 -0.001201024
12441500.0 -0.011922054 -0.00123792
12466000.0 -0.011878185 -0.001224272
12490500.0 -0.011955051 -0.00128605
12515000.0 -0.011885658 -0.001249163
12539500.0 -0.011930882 -0.001240286
12564000.0 -0.012024124 -0.001311959
12588500.0 -0.011917174 -0.001256678
12613000.0 -0.011921406 -0.00130966
12637500.0 -0.011869128 -0.001339403
12662000.0 -0.011956458 -0.001213511
12686500.0 -0.011891441 -0.001331084
12711000.0 -0.011912838 -0.001262654
12735500.0 -0.011932904 -0.001290795
12760000.0 -0.011911016 -0.001272471
12784500.0 -0.011915467 -0.001319143
12809000.0 -0.011887977 -0.001246694
12833500.0 -0.01194961 -0.001293207
12858000.0 -0.011923226 -0.001284247
12882500.0 -0.01190888 -0.001323875
12907000.0 -0.011936868 -0.001275781
12931500.0 -0.011973506 -0.001351955
12956000.0 -0.011940687 -0.001404862
12980500.0 -0.011933839 -0.001315131
13005000.0 -0.011928496 -0.001360716
13029500.0 -0.011947682 -0.00132716
13054000.0 -0.01188924 -0.001350818
13078500.0 -0.011938771 -0.001327211
13103000.0 -0.011907849 -0.001325655
13127500.0 -0.011925177 -0.001305231
13152000.0 -0.011934997 -0.001326616
13176500.0 -0.011961515 -0.001345592
13201000.0 -0.011975027 -0.001407165
13225500.0 -0.011952896 -0.001358294
13250000.0 -0.011915446 -0.001432349
13274500.0 -0.011955275 -0.001292161
13299000.0 -0.011937662 -0.001357021
13323500.0 -0.011950168 -0.001331702
13348000.0 -0.01190067 -0.001375238
13372500.0 -0.011930007 -0.001413333
13397000.0 -0.011927667 -0.00136606
13421500.0 -0.011958963 -0.001326763
13446000.0 -0.011917751 -0.001338558
13470500.0 -0.01194682 -0.001265303
13495000.0 -0.011897111 -0.001333557
13519500.0 -0.011965652 -0.001333034
13544000.0 -0.011970993 -0.001413847
13568500.0 -0.011922039 -0.001335633
13593000.0 -0.011896874 -0.001411731
13617500.0 -0.011937075 -0.001402713
13642000.0 -0.011921409 -0.001404803
13666500.0 -0.011955377 -0.001421913
13691000.0 -0.01191701 -0.001417933
13715500.0 -0.011925116 -0.001379831
13740000.0 -0.011902365 -0.001407083
13764500.0 -0.011913091 -0.001408827
13789000.0 -0.011990748 -0.001434773
13813500.0 -0.011871399 -0.001456216
13838000.0 -0.011945559 -0.00141962
13862500.0 -0.011927993 -0.001408926
13887000.0 -0.012011396 -0.001415417
13911500.0 -0.011949955 -0.001377071
13936000.0 -0.01197007 -0.00141314
13960500.0 -0.011882342 -0.001414948
13985000.0 -0.011954115 -0.001402069
14009500.0 -0.011894436 -0.001390345
14034000.0 -0.011898185 -0.001391904
14058500.0 -0.011917678 -0.001446341
14083000.0 -0.011940724 -0.001475307
14107500.0 -0.011899715 -0.001420317
14132000.0 -0.011951512 -0.001377006
14156500.0 -0.011939809 -0.001439013
14181000.0 -0.011897348 -0.00144468
14205500.0 -0.011927513 -0.001463101
14230000.0 -0.011947985 -0.00142664
14254500.0 -0.011961375 -0.001484931
14279000.0 -0.011939712 -0.001457949
14303500.0 -0.011960775 -0.001493206
14328000.0 -0.011918644 -0.001439463
14352500.0 -0.011963769 -0.001447327
14377000.0 -0.011904448 -0.001463993
14401500.0 -0.01193651 -0.00145448
14426000.0 -0.011906301 -0.001432611
14450500.0 -0.011943831 -0.001520416
14475000.0 -0.011898251 -0.001461333
