! Created with skrf (http://scikit-rf.org).
# Hz S RI R 50.0 
!freq ReS11 ImS11
1000000.0 -0.004137552 -2.9018e-05
1024500.0 -0.004256261 -0.000128439
1049000.0 -0.004193273 -0.000165646
1073500.0 -0.004178652 -0.000142705
1098000.0 -0.004191251 -0.000126405
1122500.0 -0.004225659 -0.000142554
1147000.0 -0.004230513 -0.000141942
1171500.0 -0.004256536 -0.0001178
1196000.0 -0.004168087 -0.000136182
1220500.0 -0.004273258 -8.1765e-05
1245000.0 -0.004268416 -8.4173e-05
1269500.0 -0.004227247 -0.000184413
1294000.0 -0.004248686 -0.000114101
1318500.0 -0.004177962 -0.000140528
1343000.0 -0.004232718 -0.00010952
1367500.0 -0.004247619 -0.000161186
1392000.0 -0.004225435 -0.000149487
1416500.0 -0.004202593 -0.000194115
1441000.0 -0.004213623 -0.000182659
1465500.0 -0.004182831 -0.000141324
1490000.0 -0.00425468 -0.00014071
1514500.0 -0.004248173 -0.00012711
1539000.0 -0.004238699 -0.000210646
1563500.0 -0.004241899 -0.000146489
1588000.0 -0.004180871 -0.000193294
1612500.0 -0.004262558 -0.000155573
1637000.0 -0.004209428 -0.000176602
1661500.0 -0.00427909 -0.000264351
1686000.0 -0.004279529 -0.00021052
1710500.0 -0.004184252 -0.000178287
1735000.0 -0.00419703 -0.000208687
1759500.0 -0.004249259 -0.000181963
1784000.0 -0.004218883 -0.000132809
1808500.0 -0.004238297 -0.000169933
1833000.0 -0.004271447 -0.000223315
1857500.0 -0.00423618 -0.000174214
1882000.0 -0.004293463 -0.000243168
1906500.0 -0.004228113 -0.000163176
1931000.0 -0.004219149 -0.000209627
1955500.0 -0.004213888 -0.000211557
1980000.0 -0.004282254 -0.000259531
2004500.0 -0.004210716 -0.000209529
2029000.0 -0.00423105 -0.000234002
2053500.0 -0.004290438 -0.000254284
2078000.0 -0.004256896 -0.000214168
2102500.0 -0.004263598 -0.000237383
2127000.0 -0.004244138 -0.000293643
2151500.0 -0.00423599 -0.000224903
2176000.0 -0.004280869 -0.000225108
2200500.0 -0.004253002 -0.000257051
2225000.0 -0.004259168 -0.000225483
2249500.0 -0.004265361 -0.000255831
2274000.0 -0.004251038 -0.000252622
2298500.0 -0.004311013 -0.000252676
2323000.0 -0.00423308 -0.000265953
2347500.0 -0.004259362 -0.000205108
2372000.0 -0.004185778 -0.000229897
2396500.0 -0.004223346 -0.000247028
2421000.0 -0.004226314 -0.000252346
2445500.0 -0.00415434 -0.000279164
2470000.0 -0.004280678 -0.00027376
2494500.0 -0.004225579 -0.000234886
2519000.0 -0.004286058 -0.000286849
2543500.0 -0.004273976 -0.000284123
2568000.0 -0.004217952 -0.000319741
2592500.0 -0.004191342 -0.000308583
2617000.0 -0.004254888 -0.000272374
2641500.0 -0.004231929 -0.000296529
2666000.0 -0.004236976 -0.000257147
2690500.0 -0.004224705 -0.000273226
2715000.0 -0.004193481 -0.000308967
2739500.0 -0.00422867 -0.000284693
2764000.0 -0.004226529 -0.000332673
2788500.0 -0.004240029 -0.000314405
2813000.0 -0.004303406 -0.000267254
2837500.0 -0.004250224 -0.000331909
2862000.0 -0.004253402 -0.000324554
2886500.0 -0.004203014 -0.000320582
2911000.0 -0.004227659 -0.000338712
2935500.0 -0.004246767 -0.000364369
2960000.0 -0.004248823 -0.00038759
2984500.0 -0.004219278 -0.000343027
3009000.0 -0.004265268 -0.000331545
3033500.0 -0.004251725 -0.000363823
3058000.0 -0.004279742 -0.0003532
3082500.0 -0.004264659 -0.000347647
3107000.0 -0.004279549 -0.000359121
3131500.0 -0.004271169 -0.000331302
3156000.0 -0.004270351 -0.000429188
3180500.0 -0.004224627 -0.000368604
3205000.0 -0.004253604 -0.000387243
3229500.0 -0.004259051 -0.000339877
3254000.0 -0.004241902 -0.000383152
3278500.0 -0.004242416 -0.00040185
3303000.0 -0.004265705 -0.000360044
3327500.0 -0.004237061 -0.000425281
3352000.0 -0.004228906 -0.000384221
3376500.0 -0.004267093 -0.000389688
3401000.0 -0.004220119 -0.000376458
3425500.0 -0.004288537 -0.000451776
3450000.0 -0.004305348 -0.000427366
3474500.0 -0.00432986 -0.000445054
3499000.0 -0.004314244 -0.000422418
3523500.0 -0.004306999 -0.000456003
3548000.0 -0.00434332 -0.000422659
3572500.0 -0.004301941 -0.000435639
3597000.0 -0.004359197 -0.000402914
3621500.0 -0.004251268 -0.00041711
3646000.0 -0.004358881 -0.000371295
3670500.0 -0.004258383 -0.000399048
3695000.0 -0.004315313 -0.000449071
3719500.0 -0.004282838 -0.000439878
3744000.0 -0.004322905 -0.00048248
3768500.0 -0.004348678 -0.000464534
3793000.0 -0.004337042 -0.000450145
3817500.0 -0.004315718 -0.000485042
3842000.0 -0.004321856 -0.000453887
3866500.0 -0.004329715 -0.000409998
3891000.0 -0.004328049 -0.000436332
3915500.0 -0.004321202 -0.000462767
3940000.0 -0.004310048 -0.00051792
3964500.0 -0.004349689 -0.000484114
3989000.0 -0.004304625 -0.000458802
4013500.0 -0.004328811 -0.000476182
4038000.0 -0.004328659 -0.000479504
4062500.0 -0.004322938 -0.000461441
4087000.0 -0.004348001 -0.000540855
4111500.0 -0.004317796 -0.00049693
4136000.0 -0.004320287 -0.000507263
4160500.0 -0.004282512 -0.000487626
4185000.0 -0.004321109 -0.000478908
4209500.0 -0.004312636 -0.000540431
4234000.0 -0.004344496 -0.000502418
4258500.0 -0.004310245 -0.000499798
4283000.0 -0.004309194 -0.000529602
4307500.0 -0.004335295 -0.000468719
4332000.0 -0.004348571 -0.000496357
4356500.0 -0.004415182 -0.000489839
4381000.0 -0.00436103 -0.00052166
4405500.0 -0.004310619 -0.000536545
4430000.0 -0.004378938 -0.000480767
4454500.0 -0.004324191 -0.000476056
4479000.0 -0.004316297 -0.000482717
4503500.0 -0.004360716 -0.000637447
4528000.0 -0.00431653 -0.000533192
4552500.0 -0.004302001 -0.000553811
4577000.0 -0.004295654 -0.000537887
4601500.0 -0.004283663 -0.000565219
4626000.0 -0.004298083 -0.000547843
4650500.0 -0.004328358 -0.00054625
4675000.0 -0.004317135 -0.000581861
4699500.0 -0.004344167 -0.000575227
4724000.0 -0.004281509 -0.000503175
4748500.0 -0.004384289 -0.0005119
4773000.0 -0.004318484 -0.000525265
4797500.0 -0.004313093 -0.000502956
4822000.0 -0.004315155 -0.000611821
4846500.0 -0.004375172 -0.000548522
4871000.0 -0.004385111 -0.000575867
4895500.0 -0.00434573 -0.000603624
4920000.0 -0.004335127 -0.000616487
4944500.0 -0.004355123 -0.000606159
4969000.0 -0.004282194 -0.000556866
4993500.0 -0.004321643 -0.000557548
5018000.0 -0.004374736 -0.000574515
5042500.0 -0.004324352 -0.000551869
5067000.0 -0.004327845 -0.000599947
5091500.0 -0.00431816 -0.000620322
5116000.0 -0.004313895 -0.000642839
5140500.0 -0.004303469 -0.000600828
5165000.0 -0.004330314 -0.000612613
5189500.0 -0.004371449 -0.00063362
5214000.0 -0.004396038 -0.000594173
5238500.0 -0.004255837 -0.000622151
5263000.0 -0.004366512 -0.000663274
5287500.0 -0.004384413 -0.00059289
5312000.0 -0.004330913 -0.000568203
5336500.0 -0.004270134 -0.000645116
5361000.0 -0.004301796 -0.000632775
5385500.0 -0.004297048 -0.000718051
5410000.0 -0.004380029 -0.000626074
5434500.0 -0.004324383 -0.000593248
5459000.0 -0.004373472 -0.000668939
5483500.0 -0.004379028 -0.000652398
5508000.0 -0.004365765 -0.000628433
5532500.0 -0.004340883 -0.000650853
5557000.0 -0.004323009 -0.000666312
5581500.0 -0.004371423 -0.000676807
5606000.0 -0.004342194 -0.00064615
5630500.0 -0.004344099 -0.000669388
5655000.0 -0.004351755 -0.000631716
5679500.0 -0.004315768 -0.000629571
5704000.0 -0.00433032 -0.000616358
5728500.0 -0.004328727 -0.000676094
5753000.0 -0.004362738 -0.000645375
5777500.0 -0.004278806 -0.000648587
5802000.0 -0.004258559 -0.000682249
5826500.0 -0.004326561 -0.000677784
5851000.0 -0.004301167 -0.000689971
5875500.0 -0.004310466 -0.000753214
5900000.0 -0.004341636 -0.000687063
5924500.0 -0.004374378 -0.000704551
5949000.0 -0.004353849 -0.000748845
5973500.0 -0.004383658 -0.000651784
5998000.0 -0.004341658 -0.000671281
6022500.0 -0.004353641 -0.000703285
6047000.0 -0.004314812 -0.000707927
6071500.0 -0.004379035 -0.000684602
6096000.0 -0.004343214 -0.000688751
6120500.0 -0.004327295 -0.00070845
6145000.0 -0.004368112 -0.000764843
6169500.0 -0.004373518 -0.000744406
6194000.0 -0.004351396 -0.000757845
6218500.0 -0.004411346 -0.000739542
6243000.0 -0.004363208 -0.000771139
6267500.0 -0.004392161 -0.000762263
6292000.0 -0.004372109 -0.00074822
6316500.0 -0.004383036 -0.000710165
6341000.0 -0.004385262 -0.000733327
6365500.0 -0.004350078 -0.000758093
6390000.0 -0.004330182 -0.000693701
6414500.0 -0.004427334 -0.000719948
6439000.0 -0.004384758 -0.000795826
6463500.0 -0.004375492 -0.000774
6488000.0 -0.004350677 -0.000772345
6512500.0 -0.004343894 -0.000843033
6537000.0 -0.004369715 -0.000793918
6561500.0 -0.004294999 -0.000829922
6586000.0 -0.004336194 -0.000784795
6610500.0 -0.004374653 -0.000810585
6635000.0 -0.00435652 -0.000820326
6659500.0 -0.004355963 -0.000816701
6684000.0 -0.004358962 -0.000749548
6708500.0 -0.004332906 -0.000798228
6733000.0 -0.004339059 -0.000793221
6757500.0 -0.004394565 -0.000798001
6782000.0 -0.00432149 -0.000813212
6806500.0 -0.004315408 -0.000835929
6831000.0 -0.004381899 -0.000806369
6855500.0 -0.004345346 -0.000810112
6880000.0 -0.004352467 -0.000802015
6904500.0 -0.004293813 -0.000771712
6929000.0 -0.004357671 -0.000782103
6953500.0 -0.00433555 -0.000791384
6978000.0 -0.004359439 -0.000813804
7002500.0 -0.004366305 -0.000760854
7027000.0 -0.004421327 -0.000798826
7051500.0 -0.004391655 -0.000830213
7076000.0 -0.004401404 -0.000793564
7100500.0 -0.004344395 -0.000891041
7125000.0 -0.004406119 -0.000917379
7149500.0 -0.004392327 -0.000885097
7174000.0 -0.004428259 -0.000863595
7198500.0 -0.004356846 -0.000921047
7223000.0 -0.004414033 -0.000820347
7247500.0 -0.004388458 -0.000860656
7272000.0 -0.004321708 -0.000878333
7296500.0 -0.004369249 -0.000809968
7321000.0 -0.004343962 -0.000876756
7345500.0 -0.004287283 -0.000846213
7370000.0 -0.004345316 -0.000849349
7394500.0 -0.004381771 -0.000843661
7419000.0 -0.004333047 -0.000886951
7443500.0 -0.004430522 -0.000920743
7468000.0 -0.004355254 -0.000867199
7492500.0 -0.004348973 -0.000963995
7517000.0 -0.004377104 -0.000871786
7541500.0 -0.004427967 -0.000924817
7566000.0 -0.00439835 -0.000930423
7590500.0 -0.004359401 -0.000944832
7615000.0 -0.00431994 -0.000920842
7639500.0 -0.004349231 -0.000901183
7664000.0 -0.004360093 -0.00093757
7688500.0 -0.004409272 -0.000892038
7713000.0 -0.004379289 -0.000878818
7737500.0 -0.004370403 -0.000888075
7762000.0 -0.004336835 -0.000937374
7786500.0 -0.004372311 -0.000960209
7811000.0 -0.004318988 -0.000907043
7835500.0 -0.00439784 -0.000971055
7860000.0 -0.004382142 -0.000905792
7884500.0 -0.004372996 -0.000931234
7909000.0 -0.004313112 -0.000997609
7933500.0 -0.004363063 -0.000943976
7958000.0 -0.004396335 -0.000933044
7982500.0 -0.004392817 -0.001011876
8007000.0 -0.004409664 -0.000933167
8031500.0 -0.004377198 -0.000982183
8056000.0 -0.004433694 -0.000977404
8080500.0 -0.004353164 -0.000972075
8105000.0 -0.004384027 -0.000959585
8129500.0 -0.004428774 -0.001018519
8154000.0 -0.004438241 -0.001026929
8178500.0 -0.004450164 -0.000984688
8203000.0 -0.004424877 -0.000984811
8227500.0 -0.004415205 -0.001008397
8252000.0 -0.004429277 -0.001029754
8276500.0 -0.00438563 -0.000996062
8301000.0 -0.004371896 -0.000975659
8325500.0 -0.004420304 -0.001000242
8350000.0 -0.004386046 -0.000957885
8374500.0 -0.004410224 -0.00103181
8399000.0 -0.004461759 -0.001007868
8423500.0 -0.004406837 -0.000973942
8448000.0 -0.004406373 -0.000996152
8472500.0 -0.004422797 -0.001031926
8497000.0 -0.004446758 -0.00098379
8521500.0 -0.004458681 -0.001000685
8546000.0 -0.004453338 -0.001018082
8570500.0 -0.004450059 -0.001097444
8595000.0 -0.004441254 -0.001079348
8619500.0 -0.00437565 -0.001085293
8644000.0 -0.004394131 -0.001082384
8668500.0 -0.004458383 -0.000960417
8693000.0 -0.004478643 -0.001039582
8717500.0 -0.004358706 -0.001034904
8742000.0 -0.004405621 -0.001035969
8766500.0 -0.004401802 -0.00101258
8791000.0 -0.004426517 -0.001008493
8815500.0 -0.004411783 -0.001077227
8840000.0 -0.004445641 -0.001028039
8864500.0 -0.004496473 -0.001029236
8889000.0 -0.004446541 -0.001056482
8913500.0 -0.00442362 -0.001070788
8938000.0 -0.004471911 -0.001060278
8962500.0 -0.004423513 -0.001074152
8987000.0 -0.004426525 -0.001039012
9011500.0 -0.004457989 -0.001095925
9036000.0 -0.004428684 -0.001065778
9060500.0 -0.004466284 -0.00112293
9085000.0 -0.004452603 -0.001066898
9109500.0 -0.004352026 -0.001158192
9134000.0 -0.004407089 -0.00108161
9158500.0 -0.004427653 -0.001158591
9183000.0 -0.004465977 -0.001135069
9207500.0 -0.004533202 -0.001130025
9232000.0 -0.004403356 -0.001201232
9256500.0 -0.004415719 -0.001150026
9281000.0 -0.004421628 -0.001088196
9305500.0 -0.004421115 -0.00112438
9330000.0 -0.0044554 -0.001160856
9354500.0 -0.004459055 -0.001051758
9379000.0 -0.004403025 -0.001084825
9403500.0 -0.004365525 -0.001127098
9428000.0 -0.004431227 -0.0011711
9452500.0 -0.004444787 -0.001136316
9477000.0 -0.004449288 -0.001146931
9501500.0 -0.004426017 -0.001082094
9526000.0 -0.004488314 -0.001160085
9550500.0 -0.004447601 -0.001132448
9575000.0 -0.004422921 -0.001127528
9599500.0 -0.00443312 -0.001060817
9624000.0 -0.004516298 -0.001134892
9648500.0 -0.00443854 -0.001182199
9673000.0 -0.004398833 -0.001212711
9697500.0 -0.004421816 -0.001143453
9722000.0 -0.0044888 -0.001161985
9746500.0 -0.004420385 -0.001183318
9771000.0 -0.004473388 -0.001162533
9795500.0 -0.004471627 -0.001137885
9820000.0 -0.004438016 -0.00117155
9844500.0 -0.004448727 -0.001205104
9869000.0 -0.004483601 -0.001139792
9893500.0 -0.004479914 -0.001169821
9918000.0 -0.004510231 -0.00122385
9942500.0 -0.004410818 -0.001196215
9967000.0 -0.004500205 -0.001193078
9991500.0 -0.00445523 -0.001160832
10016000.0 -0.004444014 -0.001186952
10040500.0 -0.004464464 -0.001226961
10065000.0 -0.004457689 -0.001205188
10089500.0 -0.004473971 -0.0012113
10114000.0 -0.004434826 -0.001227547
10138500.0 -0.00444755 -0.001189884
10163000.0 -0.004484096 -0.001174957
10187500.0 -0.004493708 -0.001215999
10212000.0 -0.004505599 -0.001239621
10236500.0 -0.004435729 -0.001243397
10261000.0 -0.004464409 -0.001180065
10285500.0 -0.004538621 -0.001265471
10310000.0 -0.004497208 -0.001284954
10334500.0 -0.004443558 -0.001257212
10359000.0 -0.00447284 -0.001327419
10383500.0 -0.004425369 -0.00123599
10408000.0 -0.004429287 -0.001261722
10432500.0 -0.004490449 -0.001310762
10457000.0 -0.004487341 -0.001268811
10481500.0 -0.004465897 -0.001248699
10506000.0 -0.004488985 -0.00124452
10530500.0 -0.004455903 -0.001245839
10555000.0 -0.004488158 -0.001228021
10579500.0 -0.004450066 -0.001302011
10604000.0 -0.00449073 -0.00126166
10628500.0 -0.004477196 -0.001299449
10653000.0 -0.004497127 -0.001249119
10677500.0 -0.004499267 -0.001290547
10702000.0 -0.004461949 -0.001290459
10726500.0 -0.004470692 -0.001284445
10751000.0 -0.004523455 -0.001269218
10775500.0 -0.004480731 -0.001345986
10800000.0 -0.004524813 -0.001293398
10824500.0 -0.004572524 -0.001327965
10849000.0 -0.00453455 -0.001260817
10873500.0 -0.004546037 -0.001365983
10898000.0 -0.004527854 -0.001260063
10922500.0 -0.004563675 -0.001284814
10947000.0 -0.004545702 -0.001296617
10971500.0 -0.004615817 -0.001291993
10996000.0 -0.004545428 -0.00130227
11020500.0 -0.004547199 -0.00133373
11045000.0 -0.004558003 -0.001298211
11069500.0 -0.004567898 -0.00130345
11094000.0 -0.004545531 -0.001367258
11118500.0 -0.004536964 -0.001325921
11143000.0 -0.004565949 -0.001345503
11167500.0 -0.004524355 -0.001323074
11192000.0 -0.004572099 -0.001300631
11216500.0 -0.004512633 -0.001312104
11241000.0 -0.004557407 -0.001295304
11265500.0 -0.004550752 -0.001330257
11290000.0 -0.004613285 -0.001334433
11314500.0 -0.00458843 -0.001309315
11339000.0 -0.004509056 -0.001339227
11363500.0 -0.004576097 -0.001370791
11388000.0 -0.004564923 -0.001349483
11412500.0 -0.004595904 -0.001317324
11437000.0 -0.004553675 -0.001406116
11461500.0 -0.004543314 -0.001352458
11486000.0 -0.004554934 -0.001373912
11510500.0 -0.004640311 -0.001368991
11535000.0 -0.004552167 -0.001400877
11559500.0 -0.004601004 -0.001417046
11584000.0 -0.004570134 -0.001403212
11608500.0 -0.004552398 -0.001369726
11633000.0 -0.004540259 -0.001401199
11657500.0 -0.00452863 -0.001415281
11682000.0 -0.004616705 -0.001380703
11706500.0 -0.004545258 -0.001352826
11731000.0 -0.004591143 -0.001419331
11755500.0 -0.004595223 -0.00140383
11780000.0 -0.004575347 -0.001416387
11804500.0 -0.004598392 -0.00146746
11829000.0 -0.00461982 -0.001482011
11853500.0 -0.004597572 -0.001434793
11878000.0 -0.004588531 -0.001435551
11902500.0 -0.004571412 -0.001395703
11927000.0 -0.004618531 -0.001399434
11951500.0 -0.004588363 -0.001433252
11976000.0 -0.004578905 -0.001459552
12000500.0 -0.004652787 -0.001429338
12025000.0 -0.004551808 -0.001444333
12049500.0 -0.004625509 -0.001428477
12074000.0 -0.004600429 -0.001456945
12098500.0 -0.004573741 -0.001426976
12123000.0 -0.004601664 -0.00143491
12147500.0 -0.004578165 -0.001427198
12172000.0 -0.004610568 -0.00143714
12196500.0 -0.004580838 -0.001466037
12221000.0 -0.004602195 -0.001486903
12245500.0 -0.004625629 -0.001439775
12270000.0 -0.004650038 -0.001489325
12294500.0 -0.004655664 -0.001437374
12319000.0 -0.004642862 -0.001462591
12343500.0 -0.004634411 -0.001471887
12368000.0 -0.004655636 -0.001496389
12392500.0 -0.004625622 -0.001450894
12417000.0 -0.004612312 -0.001404885
12441500.0 -0.004581392 -0.001504549
12466000.0 -0.00458757 -0.001509737
12490500.0 -0.00461493 -0.001517629
12515000.0 -0.004631819 -0.001507848
12539500.0 -0.004553367 -0.001474087
12564000.0 -0.004565113 -0.00145732
12588500.0 -0.004601364 -0.001445857
12613000.0 -0.004648913 -0.001511981
12637500.0 -0.004637928 -0.001454807
12662000.0 -0.004637115 -0.00144102
12686500.0 -0.004621081 -0.001556505
12711000.0 -0.004675028 -0.00148741
12735500.0 -0.004585669 -0.001523399
12760000.0 -0.004586469 -0.001512795
12784500.0 -0.004661026 -0.001436955
12809000.0 -0.004587231 -0.001423643
12833500.0 -0.004655638 -0.001583895
12858000.0 -0.004627539 -0.001548281
12882500.0 -0.00461105 -0.001510111
12907000.0 -0.00461199 -0.001554528
12931500.0 -0.004607115 -0.001592369
12956000.0 -0.004637596 -0.001569297
12980500.0 -0.004706414 -0.001517895
13005000.0 -0.004614632 -0.001581048
13029500.0 -0.004639848 -0.001588497
13054000.0 -0.004621212 -0.001540942
13078500.0 -0.004677174 -0.001602718
13103000.0 -0.004611456 -0.001534367
13127500.0 -0.004607999 -0.001596494
13152000.0 -0.004644318 -0.001603806
13176500.0 -0.004648084 -0.001541386
13201000.0 -0.004640195 -0.001546742
13225500.0 -0.004674333 -0.001569343
13250000.0 -0.004763372 -0.001558701
13274500.0 -0.004743354 -0.001616006
13299000.0 -0.004810735 -0.001608722
13323500.0 -0.004790934 -0.001559888
13348000.0 -0.004726853 -0.001550968
13372500.0 -0.004759471 -0.001570309
13397000.0 -0.004729295 -0.001599479
13421500.0 -0.004687011 -0.001624622
13446000.0 -0.004769511 -0.001637992
13470500.0 -0.00474826 -0.001607704
13495000.0 -0.004764593 -0.001571927
13519500.0 -0.004774508 -0.001657653
13544000.0 -0.004783267 -0.001592526
13568500.0 -0.004730431 -0.001617906
13593000.0 -0.004779963 -0.001644644
13617500.0 -0.004771302 -0.001561837
13642000.0 -0.004810043 -0.001583232
13666500.0 -0.004836124 -0.001588542
13691000.0 -0.004799672 -0.001693716
13715500.0 -0.004764049 -0.001656656
13740000.0 -0.004781012 -0.00166434
13764500.0 -0.004753823 -0.001644421
13789000.0 -0.004762304 -0.001622364
13813500.0 -0.004765718 -0.001597827
13838000.0 -0.004783573 -0.001644716
13862500.0 -0.004771509 -0.001630352
13887000.0 -0.004765911 -0.001661766
13911500.0 -0.004760988 -0.001574906
13936000.0 -0.004759754 -0.001604128
13960500.0 -0.004819055 -0.001668108
13985000.0 -0.004778308 -0.001671584
14009500.0 -0.004751994 -0.00163262
14034000.0 -0.004780329 -0.00170986
14058500.0 -0.004746486 -0.001713478
14083000.0 -0.004769379 -0.001648404
14107500.0 -0.004780879 -0.001661134
14132000.0 -0.004716294 -0.001689342
14156500.0 -0.004741899 -0.001629051
14181000.0 -0.004814311 -0.001626116
14205500.0 -0.004848541 -0.001711413
14230000.0 -0.004772338 -0.001657614
14254500.0 -0.004828741 -0.001719313
14279000.0 -0.004742391 -0.001715572
14303500.0 -0.004821996 -0.001712031
14328000.0 -0.004749299 -0.001669119
14352500.0 -0.004828828 -0.001705903
14377000.0 -0.004784281 -0.001707809
14401500.0 -0.004754864 -0.001718554
14426000.0 -0.004777987 -0.001676484
14450500.0 -0.004762525 -0.001741374
14475000.0 -0.00481458 -0.001730178
