! Created with skrf (http://scikit-rf.org).
# Hz S RI R 50.0 
!freq ReS11 ImS11
1000000.0 0.58981664 0.000965158
1024500.0 0.589759424 0.000903777
1049000.0 0.589672768 0.000916924
1073500.0 0.589777088 0.000827881
1098000.0 0.589731328 0.000839488
1122500.0 0.58969856 0.000807498
1147000.0 0.589744064 0.000695762
1171500.0 0.589749248 0.000728118
1196000.0 0.589729728 0.000663565
1220500.0 0.589717888 0.000591512
1245000.0 0.589711488 0.000594416
1269500.0 0.589772672 0.000597037
1294000.0 0.589726592 0.000465001
1318500.0 0.589729984 0.00044913
1343000.0 0.589674624 0.00044566
1367500.0 0.589697472 0.000367384
1392000.0 0.589714176 0.000301603
1416500.0 0.589768192 0.000350311
1441000.0 0.589677248 0.000293345
1465500.0 0.58974976 0.00025327
1490000.0 0.589769216 0.000122281
1514500.0 0.589732416 0.000178648
1539000.0 0.5897264 0.000187101
1563500.0 0.589681536 9.2159e-05
1588000.0 0.589735104 6.2176e-05
1612500.0 0.58977184 -9.354e-06
1637000.0 0.589766272 1.7627e-05
1661500.0 0.589761728 -0.000106658
1686000.0 0.589780672 -0.000135972
1710500.0 0.589773248 -0.000187724
1735000.0 0.589700736 -0.000177095
1759500.0 0.5897312 -0.000208708
1784000.0 0.58974784 -0.000286352
1808500.0 0.589745664 -0.000304536
1833000.0 0.58976864 -0.000390952
1857500.0 0.58972704 -0.000412145
1882000.0 0.589708288 -0.000479973
1906500.0 0.589768512 -0.000459727
1931000.0 0.589738304 -0.000488423
1955500.0 0.589753984 -0.000579786
1980000.0 0.589761408 -0.000525932
2004500.0 0.589764288 -0.000576148
2029000.0 0.589750592 -0.000652014
2053500.0 0.589739136 -0.000659408
2078000.0 0.589746048 -0.000735428
2102500.0 0.589732224 -0.000777574
2127000.0 0.589758272 -0.000767379
2151500.0 0.589771456 -0.000876679
2176000.0 0.589745536 -0.000872083
2200500.0 0.589738816 -0.000924315
2225000.0 0.58978656 -0.00102632
2249500.0 0.589720768 -0.000990819
2274000.0 0.589741248 -0.001096238
2298500.0 0.589693376 -0.001090195
2323000.0 0.589719488 -0.001102626
2347500.0 0.589805824 -0.001132483
2372000.0 0.589767488 -0.001171275
2396500.0 0.589741952 -0.00116214
2421000.0 0.58974624 -0.001264776
2445500.0 0.589721024 -0.001312209
2470000.0 0.58972736 -0.001325067
2494500.0 0.5897216 -0.001401288
2519000.0 0.589766912 -0.001448282
2543500.0 0.589681408 -0.001411896
2568000.0 0.589764416 -0.001446548
2592500.0 0.589769984 -0.001487381
2617000.0 0.589720832 -0.001530945
2641500.0 0.589705728 -0.001581987
2666000.0 0.589723328 -0.001640194
2690500.0 0.58980384 -0.001708005
2715000.0 0.589765632 -0.001694666
2739500.0 0.589741184 -0.001730963
2764000.0 0.589709568 -0.00173333
2788500.0 0.589804096 -0.001799227
2813000.0 0.589783744 -0.001818144
2837500.0 0.589726976 -0.001842022
2862000.0 0.589796032 -0.001920608
2886500.0 0.58974496 -0.001954238
2911000.0 0.589718656 -0.001955962
2935500.0 0.589743168 -0.00198495
2960000.0 0.589734656 -0.002110009
2984500.0 0.589766784 -0.00209927
3009000.0 0.58975136 -0.002127293
3033500.0 0.589746304 -0.002156333
3058000.0 0.589792192 -0.002231158
3082500.0 0.589757824 -0.002292406
3107000.0 0.589753344 -0.0022631
3131500.0 0.589731904 -0.002303412
3156000.0 0.589727232 -0.002323829
3180500.0 0.589775552 -0.002419407
3205000.0 0.589785664 -0.002399424
3229500.0 0.589669376 -0.00249678
3254000.0 0.58973216 -0.002501203
3278500.0 0.589741184 -0.002519887
3303000.0 0.589686528 -0.002564031
3327500.0 0.589762752 -0.00260807
3352000.0 0.58974496 -0.002665611
3376500.0 0.589731968 -0.002635522
3401000.0 0.589760768 -0.002802375
3425500.0 0.589711424 -0.002760073
3450000.0 0.589686848 -0.002783326
3474500.0 0.589700096 -0.00281169
3499000.0 0.589682368 -0.002888424
3523500.0 0.589757184 -0.002924111
3548000.0 0.589694592 -0.002928528
3572500.0 0.58969824 -0.002985767
3597000.0 0.589769216 -0.002959499
3621500.0 0.589721856 -0.003081589
3646000.0 0.589720128 -0.003050035
3670500.0 0.589709056 -0.003148402
3695000.0 0.589695424 -0.003138587
3719500.0 0.589649408 -0.003124252
3744000.0 0.589765312 -0.003247555
3768500.0 0.589713856 -0.003204918
3793000.0 0.589711552 -0.003281963
3817500.0 0.589732672 -0.003383085
3842000.0 0.589756416 -0.003325595
3866500.0 0.589727424 -0.003416693
3891000.0 0.589730816 -0.003374464
3915500.0 0.589705024 -0.00343664
3940000.0 0.589727552 -0.003482409
3964500.0 0.589739712 -0.00355217
3989000.0 0.58972416 -0.003620486
4013500.0 0.589691072 -0.003600309
4038000.0 0.58960544 -0.003597881
4062500.0 0.589705984 -0.003693374
4087000.0 0.589728192 -0.003722608
4111500.0 0.589724928 -0.003715669
4136000.0 0.589733632 -0.003813882
4160500.0 0.589749056 -0.003855644
4185000.0 0.589667968 -0.003841914
4209500.0 0.589688832 -0.003889671
4234000.0 0.589741632 -0.003914482
4258500.0 0.589700032 -0.003887862
4283000.0 0.589658688 -0.003985613
4307500.0 0.589701376 -0.004055872
4332000.0 0.589722816 -0.004092155
4356500.0 0.58975808 -0.004114273
4381000.0 0.589696448 -0.004147753
4405500.0 0.589735744 -0.004220721
4430000.0 0.589689536 -0.004201485
4454500.0 0.58971584 -0.004269961
4479000.0 0.589735936 -0.004317373
4503500.0 0.589765568 -0.004374023
4528000.0 0.589712192 -0.004349091
4552500.0 0.589713664 -0.004387726
4577000.0 0.589664512 -0.00441357
4601500.0 0.589699712 -0.004498908
4626000.0 0.589701184 -0.004511786
4650500.0 0.589681792 -0.004544167
4675000.0 0.589716864 -0.004572531
4699500.0 0.589684992 -0.0046048
4724000.0 0.58966976 -0.004610348
4748500.0 0.589719232 -0.004673306
4773000.0 0.589734208 -0.004675647
4797500.0 0.589671488 -0.00473885
4822000.0 0.589697984 -0.004794401
4846500.0 0.589681472 -0.004757037
4871000.0 0.589667392 -0.00486734
4895500.0 0.58966912 -0.004791657
4920000.0 0.589678208 -0.004930401
4944500.0 0.589689408 -0.004942591
4969000.0 0.589673152 -0.004985936
4993500.0 0.589739584 -0.005053654
5018000.0 0.589644992 -0.005072845
5042500.0 0.58968192 -0.005063175
5067000.0 0.58966688 -0.005113242
5091500.0 0.589710016 -0.005131902
5116000.0 0.589664064 -0.005160051
5140500.0 0.589678784 -0.005204287
5165000.0 0.589695488 -0.00522975
5189500.0 0.589602048 -0.005310466
5214000.0 0.589649024 -0.005396979
5238500.0 0.589649152 -0.005389848
5263000.0 0.589652736 -0.005407863
5287500.0 0.589683264 -0.005489362
5312000.0 0.589671424 -0.005451181
5336500.0 0.58963584 -0.005480199
5361000.0 0.589738944 -0.005490436
5385500.0 0.589603328 -0.00564777
5410000.0 0.58966752 -0.005607267
5434500.0 0.589646784 -0.005660586
5459000.0 0.589663616 -0.005678946
5483500.0 0.5896144 -0.005735657
5508000.0 0.589670976 -0.005769624
5532500.0 0.58966848 -0.005784114
5557000.0 0.589678592 -0.005828794
5581500.0 0.589652672 -0.005816691
5606000.0 0.589660096 -0.005928263
5630500.0 0.58968416 -0.005941798
5655000.0 0.58966624 -0.005968389
5679500.0 0.589652544 -0.005984481
5704000.0 0.589715392 -0.006022299
5728500.0 0.589684992 -0.00607886
5753000.0 0.589686016 -0.006141317
5777500.0 0.58970112 -0.006167159
5802000.0 0.589637248 -0.006163951
5826500.0 0.589670016 -0.006231045
5851000.0 0.58968224 -0.006280746
5875500.0 0.589662656 -0.006272137
5900000.0 0.58967744 -0.006337364
5924500.0 0.589645632 -0.006389786
5949000.0 0.589668544 -0.006407714
5973500.0 0.589690816 -0.006395909
5998000.0 0.589682688 -0.006481395
6022500.0 0.589661952 -0.006569228
6047000.0 0.58965632 -0.006537255
6071500.0 0.589664832 -0.006554288
6096000.0 0.589663936 -0.006619935
6120500.0 0.589594688 -0.006608187
6145000.0 0.589691968 -0.006689903
6169500.0 0.589670912 -0.006611889
6194000.0 0.58958272 -0.006726608
6218500.0 0.589589312 -0.006741438
6243000.0 0.589674944 -0.006860267
6267500.0 0.58964992 -0.006881359
6292000.0 0.589626176 -0.006816538
6316500.0 0.58959264 -0.006946247
6341000.0 0.589663616 -0.00690564
6365500.0 0.589625984 -0.007009283
6390000.0 0.58960864 -0.007036719
6414500.0 0.589641024 -0.007063054
6439000.0 0.58963392 -0.007125305
6463500.0 0.589630464 -0.007091996
6488000.0 0.589645248 -0.007128482
6512500.0 0.589570432 -0.007251952
6537000.0 0.58967712 -0.007263346
6561500.0 0.589591936 -0.007283512
6586000.0 0.589629184 -0.007301796
6610500.0 0.589592896 -0.007336968
6635000.0 0.589637184 -0.007299472
6659500.0 0.589640256 -0.007411465
6684000.0 0.58961152 -0.007486471
6708500.0 0.58964672 -0.007554077
6733000.0 0.589669376 -0.007536391
6757500.0 0.589668736 -0.007587436
6782000.0 0.589655616 -0.007596272
6806500.0 0.589591424 -0.007629978
6831000.0 0.589631616 -0.007690542
6855500.0 0.589583168 -0.007675472
6880000.0 0.589616256 -0.007724307
6904500.0 0.58962976 -0.007749318
6929000.0 0.58958432 -0.007801179
6953500.0 0.589656832 -0.007812807
6978000.0 0.589590592 -0.007866462
7002500.0 0.5897088 -0.007940945
7027000.0 0.58962688 -0.007900989
7051500.0 0.589561984 -0.008024422
7076000.0 0.589655488 -0.008009162
7100500.0 0.589619904 -0.008072938
7125000.0 0.589654656 -0.008124197
7149500.0 0.589617024 -0.008104355
7174000.0 0.589657472 -0.008223167
7198500.0 0.589630336 -0.008230361
7223000.0 0.589595264 -0.008208002
7247500.0 0.589614528 -0.008199299
7272000.0 0.589598144 -0.008287571
7296500.0 0.589587904 -0.008381908
7321000.0 0.589622912 -0.008352982
7345500.0 0.589624704 -0.008394116
7370000.0 0.589638784 -0.008460079
7394500.0 0.589662848 -0.008484955
7419000.0 0.589607488 -0.008513775
7443500.0 0.589590144 -0.00858014
7468000.0 0.589604608 -0.008614806
7492500.0 0.58967392 -0.008641109
7517000.0 0.5896464 -0.008690726
7541500.0 0.589609408 -0.008626669
7566000.0 0.589560448 -0.008735904
7590500.0 0.58961344 -0.00880097
7615000.0 0.589602816 -0.008783659
7639500.0 0.58956096 -0.008832626
7664000.0 0.589600896 -0.008905251
7688500.0 0.589585216 -0.008947144
7713000.0 0.589593472 -0.008984366
7737500.0 0.589608768 -0.008985374
7762000.0 0.589606784 -0.009008508
7786500.0 0.589534272 -0.00907493
7811000.0 0.589588032 -0.009036301
7835500.0 0.589584384 -0.009099222
7860000.0 0.589592704 -0.009141386
7884500.0 0.589624192 -0.00923139
7909000.0 0.589593856 -0.00920751
7933500.0 0.5895328 -0.00931346
7958000.0 0.589630016 -0.009279433
7982500.0 0.58954528 -0.009337422
8007000.0 0.589588224 -0.009376823
8031500.0 0.589586432 -0.009413108
8056000.0 0.589559232 -0.009474605
8080500.0 0.589586176 -0.009474125
8105000.0 0.589630208 -0.009493828
8129500.0 0.589583104 -0.009552409
8154000.0 0.5896032 -0.00956686
8178500.0 0.589570304 -0.009644614
8203000.0 0.589488576 -0.00968127
8227500.0 0.589544384 -0.009677895
8252000.0 0.589530944 -0.009732665
8276500.0 0.589584128 -0.009771862
8301000.0 0.589513152 -0.009826909
8325500.0 0.589528704 -0.009837904
8350000.0 0.589550272 -0.009893879
8374500.0 0.58961568 -0.009918378
8399000.0 0.589575872 -0.009975812
8423500.0 0.589583168 -0.009980543
8448000.0 0.5895616 -0.009960603
8472500.0 0.589600832 -0.010008975
8497000.0 0.589607488 -0.010092458
8521500.0 0.589618496 -0.010108583
8546000.0 0.589604416 -0.010131741
8570500.0 0.589578368 -0.010131704
8595000.0 0.589582016 -0.010217835
8619500.0 0.589568 -0.010281916
8644000.0 0.589522048 -0.01027596
8668500.0 0.589544768 -0.010328995
8693000.0 0.589540032 -0.010340894
8717500.0 0.589550592 -0.010378811
8742000.0 0.589547712 -0.010439432
8766500.0 0.589533376 -0.010404961
8791000.0 0.589541248 -0.010531872
8815500.0 0.5895584 -0.010527228
8840000.0 0.589503616 -0.010620379
8864500.0 0.589574656 -0.010609227
8889000.0 0.589552768 -0.010658328
8913500.0 0.589538496 -0.010683565
8938000.0 0.58950528 -0.01073288
8962500.0 0.589494656 -0.010729387
8987000.0 0.58956192 -0.010799398
9011500.0 0.589550784 -0.010834352
9036000.0 0.58951328 -0.010842409
9060500.0 0.589574784 -0.010910464
9085000.0 0.589561728 -0.010882806
9109500.0 0.589510592 -0.010992853
9134000.0 0.589541248 -0.010956348
9158500.0 0.589477952 -0.011044622
9183000.0 0.58957024 -0.011005355
9207500.0 0.589533504 -0.011072916
9232000.0 0.589556864 -0.011171783
9256500.0 0.589525824 -0.01116472
9281000.0 0.589525312 -0.011164517
9305500.0 0.589559296 -0.011251152
9330000.0 0.589471168 -0.011286247
9354500.0 0.589519168 -0.01130216
9379000.0 0.589542528 -0.011364278
9403500.0 0.589499712 -0.011394139
9428000.0 0.589504768 -0.011424726
9452500.0 0.589556544 -0.011536101
9477000.0 0.58952544 -0.011436381
9501500.0 0.589494208 -0.011546826
9526000.0 0.589466304 -0.011510009
9550500.0 0.589487808 -0.011576445
9575000.0 0.589535552 -0.011566165
9599500.0 0.58953504 -0.011665056
9624000.0 0.589432256 -0.011682649
9648500.0 0.589497792 -0.011691872
9673000.0 0.58949792 -0.011770618
9697500.0 0.589548928 -0.011792806
9722000.0 0.589471616 -0.011826329
9746500.0 0.589536896 -0.01189585
9771000.0 0.589466752 -0.01194441
9795500.0 0.589572032 -0.011892211
9820000.0 0.589478336 -0.011993835
9844500.0 0.589497344 -0.011977017
9869000.0 0.589513152 -0.012004959
9893500.0 0.5895008 -0.012061135
9918000.0 0.589457984 -0.012138236
9942500.0 0.589529472 -0.012183326
9967000.0 0.589465984 -0.012140184
9991500.0 0.589484544 -0.012295735
10016000.0 0.589472256 -0.012233868
10040500.0 0.589460672 -0.012308253
10065000.0 0.589560896 -0.012279794
10089500.0 0.58946976 -0.012345126
10114000.0 0.58951872 -0.012348646
10138500.0 0.589432192 -0.012413739
10163000.0 0.589477248 -0.012497549
10187500.0 0.58944672 -0.012519555
10212000.0 0.589468032 -0.012519796
10236500.0 0.589482816 -0.012555304
10261000.0 0.589459776 -0.012582483
10285500.0 0.589484096 -0.012541411
10310000.0 0.589497536 -0.012668995
10334500.0 0.58947584 -0.012691596
10359000.0 0.58948256 -0.012766375
10383500.0 0.589454016 -0.012773349
10408000.0 0.589439424 -0.012774383
10432500.0 0.58945408 -0.012781933
10457000.0 0.589470208 -0.012913645
10481500.0 0.589499968 -0.012878464
10506000.0 0.589469696 -0.012929599
10530500.0 0.589492032 -0.012953643
10555000.0 0.589457664 -0.013005611
10579500.0 0.589490368 -0.013056844
10604000.0 0.589414208 -0.013072528
10628500.0 0.589425152 -0.013090787
10653000.0 0.589456832 -0.013135093
10677500.0 0.589450112 -0.013183181
10702000.0 0.589373312 -0.013204276
10726500.0 0.589462848 -0.013252567
10751000.0 0.589465728 -0.013264537
10775500.0 0.589391552 -0.013297432
10800000.0 0.589479936 -0.013335585
10824500.0 0.589437248 -0.013378219
10849000.0 0.589474432 -0.013439953
10873500.0 0.589390912 -0.01345538
10898000.0 0.589417728 -0.013521267
10922500.0 0.58949408 -0.013534778
10947000.0 0.589457344 -0.013549692
10971500.0 0.589439872 -0.013579665
10996000.0 0.589428864 -0.013670034
11020500.0 0.589476416 -0.013687965
11045000.0 0.589403328 -0.01371094
11069500.0 0.589382464 -0.013730418
11094000.0 0.58941344 -0.01377276
11118500.0 0.58946624 -0.013761008
11143000.0 0.58942208 -0.013847371
11167500.0 0.5894912 -0.013864396
11192000.0 0.589432448 -0.013854497
11216500.0 0.589458176 -0.013936632
11241000.0 0.58946144 -0.0139234
11265500.0 0.589418432 -0.013965086
11290000.0 0.589437568 -0.014031937
11314500.0 0.589489216 -0.014019334
11339000.0 0.589405312 -0.014126522
11363500.0 0.58947168 -0.014085508
11388000.0 0.589418112 -0.014125507
11412500.0 0.589380672 -0.014182087
11437000.0 0.589453504 -0.014232993
11461500.0 0.589437888 -0.01433777
11486000.0 0.58943552 -0.014256515
11510500.0 0.5894032 -0.014329671
11535000.0 0.589436992 -0.014370807
11559500.0 0.589409664 -0.014387487
11584000.0 0.589374784 -0.014399617
11608500.0 0.589401216 -0.014497953
11633000.0 0.589422464 -0.014515131
11657500.0 0.589415104 -0.014521024
11682000.0 0.589443904 -0.014540298
11706500.0 0.58940384 -0.014661333
11731000.0 0.589372864 -0.014622273
11755500.0 0.589388864 -0.014712273
11780000.0 0.589385408 -0.014744477
11804500.0 0.58938048 -0.014774937
11829000.0 0.589419456 -0.014759847
11853500.0 0.589372416 -0.014837939
11878000.0 0.589372928 -0.014812626
11902500.0 0.589460352 -0.014837942
11927000.0 0.58941504 -0.014901094
11951500.0 0.589442816 -0.014957468
11976000.0 0.589428992 -0.01497577
12000500.0 0.589346176 -0.014973453
12025000.0 0.58936672 -0.015031586
12049500.0 0.589379584 -0.015068215
12074000.0 0.589373248 -0.015078922
12098500.0 0.589325888 -0.01518464
12123000.0 0.589328256 -0.015162207
12147500.0 0.589360576 -0.015228451
12172000.0 0.589380096 -0.015269985
12196500.0 0.589375808 -0.015330072
12221000.0 0.589361216 -0.01527311
12245500.0 0.589344192 -0.015395375
12270000.0 0.589384384 -0.015374657
12294500.0 0.589363648 -0.015455619
12319000.0 0.589390464 -0.015491236
12343500.0 0.589383424 -0.015519249
12368000.0 0.5893776 -0.015495186
12392500.0 0.589343744 -0.015526765
12417000.0 0.5893488 -0.015555602
12441500.0 0.589348672 -0.015638546
12466000.0 0.589404032 -0.015622886
12490500.0 0.589290432 -0.015724881
12515000.0 0.589393344 -0.015756235
12539500.0 0.589389056 -0.015769978
12564000.0 0.589385664 -0.015838562
12588500.0 0.58938688 -0.015835474
12613000.0 0.589373824 -0.015899214
12637500.0 0.589392192 -0.015904934
12662000.0 0.58938144 -0.01597726
12686500.0 0.58933312 -0.016023353
12711000.0 0.589347776 -0.01607311
12735500.0 0.589358272 -0.016068796
12760000.0 0.589358848 -0.016102221
12784500.0 0.58930368 -0.016114284
12809000.0 0.589296 -0.016250326
12833500.0 0.589328448 -0.016149993
12858000.0 0.589339904 -0.01624406
12882500.0 0.589346688 -0.016280471
12907000.0 0.589293952 -0.016335048
12931500.0 0.589343104 -0.016318756
12956000.0 0.589364416 -0.016375825
12980500.0 0.58936288 -0.016372972
13005000.0 0.589320448 -0.016426515
13029500.0 0.589355328 -0.016508405
13054000.0 0.589339776 -0.0165117
13078500.0 0.589330944 -0.016547513
13103000.0 0.58935264 -0.016589255
13127500.0 0.589365824 -0.016625129
13152000.0 0.58926144 -0.016615104
13176500.0 0.589288704 -0.01671413
13201000.0 0.589296512 -0.016664358
13225500.0 0.589282304 -0.016746359
13250000.0 0.58933984 -0.01685246
13274500.0 0.589312192 -0.016795104
13299000.0 0.589347584 -0.016915972
13323500.0 0.589296768 -0.016875406
13348000.0 0.589351552 -0.01693881
13372500.0 0.589354368 -0.016933126
13397000.0 0.589271232 -0.017012558
13421500.0 0.589297024 -0.01702476
13446000.0 0.58926016 -0.017015702
13470500.0 0.589268416 -0.0171007
13495000.0 0.589303104 -0.017099232
13519500.0 0.589267584 -0.017164118
13544000.0 0.589332224 -0.017176246
13568500.0 0.589332736 -0.01722168
13593000.0 0.589310208 -0.017273794
13617500.0 0.58933984 -0.017316388
13642000.0 0.589315008 -0.017351774
13666500.0 0.589254016 -0.017427762
13691000.0 0.589344768 -0.017387026
13715500.0 0.589280256 -0.017439784
13740000.0 0.589366592 -0.01743583
13764500.0 0.589332672 -0.017449334
13789000.0 0.589312704 -0.017491752
13813500.0 0.589262144 -0.017557264
13838000.0 0.58927392 -0.017607298
13862500.0 0.58936128 -0.017710766
13887000.0 0.5892448 -0.01763865
13911500.0 0.58927936 -0.017746846
13936000.0 0.589290816 -0.017784648
13960500.0 0.589240704 -0.017776904
13985000.0 0.589264512 -0.017879392
14009500.0 0.58930432 -0.017842076
14034000.0 0.589250112 -0.017886044
14058500.0 0.58927584 -0.017923202
14083000.0 0.589289664 -0.017950518
14107500.0 0.589243264 -0.017954694
14132000.0 0.589284352 -0.018028996
14156500.0 0.589227456 -0.018054036
14181000.0 0.589233408 -0.018077392
14205500.0 0.589238976 -0.01811167
14230000.0 0.589304768 -0.01815562
14254500.0 0.589236864 -0.01825531
14279000.0 0.589175552 -0.018216954
14303500.0 0.589214208 -0.018255404
14328000.0 0.589216704 -0.01834311
14352500.0 0.589291968 -0.018381218
14377000.0 0.589278336 -0.018371894
14401500.0 0.589306176 -0.018405552
14426000.0 0.5892416 -0.018364806
14450500.0 0.589259648 -0.018547918
14475000.0 0.589257536 -0.018540904
14499500.0 0.58927264 -0.018521062
14524000.0 0.589256 -0.018548676
14548500.0 0.5892032 -0.018654188
14573000.0 0.589213248 -0.018675798
14597500.0 0.58929088 -0.018671488
14622000.0 0.58924704 -0.018722672
14646500.0 0.58923616 -0.018766232
14671000.0 0.589309056 -0.018795048
14695500.0 0.589276672 -0.018827032
14720000.0 0.589244032 -0.018859062
14744500.0 0.58924928 -0.018871994
14769000.0 0.589289856 -0.018922128
14793500.0 0.589286272 -0.018997286
14818000.0 0.589244928 -0.019004216
14842500.0 0.589174208 -0.01901235
14867000.0 0.589215232 -0.01904234
14891500.0 0.589249152 -0.019088056
14916000.0 0.58915648 -0.01915113
14940500.0 0.589231104 -0.019141246
