! Created with skrf (http://scikit-rf.org).
# Hz S RI R 50.0 
!freq ReS11 ImS11
1000000.0 0.589806656 0.001057642
1024500.0 0.58991168 0.001264241
1049000.0 0.589912256 0.001136487
1073500.0 0.589888 0.001049126
1098000.0 0.589915776 0.001056003
1122500.0 0.58989824 0.00103982
1147000.0 0.589885696 0.000959636
1171500.0 0.589939328 0.000891667
1196000.0 0.5898976 0.000932509
1220500.0 0.589904448 0.00085352
1245000.0 0.589972736 0.000852423
1269500.0 0.58995168 0.000725377
1294000.0 0.589932864 0.000720904
1318500.0 0.589932736 0.000680103
1343000.0 0.589917888 0.00058042
1367500.0 0.589968832 0.000598217
1392000.0 0.58990208 0.000582071
1416500.0 0.589911104 0.000441998
1441000.0 0.589926336 0.000474665
1465500.0 0.589908928 0.00042909
1490000.0 0.589913344 0.000381873
1514500.0 0.589909632 0.000378383
1539000.0 0.58994016 0.000296373
1563500.0 0.589924544 0.00025689
1588000.0 0.589950976 0.000287069
1612500.0 0.58994272 0.000192162
1637000.0 0.58992512 0.000154691
1661500.0 0.589887232 0.00010998
1686000.0 0.589947136 0.000110949
1710500.0 0.589897216 6.2548e-05
1735000.0 0.589911936 -9.289e-06
1759500.0 0.58993952 -1.0815e-05
1784000.0 0.58989632 -5.8705e-05
1808500.0 0.58990816 -9.6534e-05
1833000.0 0.589939136 -0.000162943
1857500.0 0.589942784 -0.000184973
1882000.0 0.589879808 -0.000152518
1906500.0 0.589939136 -0.000206171
1931000.0 0.589987904 -0.000263241
1955500.0 0.589900864 -0.000331592
1980000.0 0.589976768 -0.00039275
2004500.0 0.589894912 -0.000409921
2029000.0 0.589938624 -0.000446666
2053500.0 0.58990368 -0.00042433
2078000.0 0.589881024 -0.000462437
2102500.0 0.589902208 -0.000521069
2127000.0 0.589950144 -0.000592768
2151500.0 0.589894208 -0.000598484
2176000.0 0.589906368 -0.000656317
2200500.0 0.589950848 -0.000729868
2225000.0 0.5899056 -0.000771548
2249500.0 0.58989024 -0.000796228
2274000.0 0.589911616 -0.000804627
2298500.0 0.589937152 -0.000856167
2323000.0 0.589907072 -0.000879127
2347500.0 0.58986208 -0.000937092
2372000.0 0.58990496 -0.001000862
2396500.0 0.58993504 -0.000987024
2421000.0 0.589964928 -0.00107807
2445500.0 0.589965632 -0.001018639
2470000.0 0.589981888 -0.001055098
2494500.0 0.589930176 -0.001148497
2519000.0 0.589961728 -0.001170446
2543500.0 0.589966464 -0.001200155
2568000.0 0.589927744 -0.001252727
2592500.0 0.589905984 -0.001318782
2617000.0 0.589928896 -0.001305115
2641500.0 0.589935296 -0.001402265
2666000.0 0.589900416 -0.001405865
2690500.0 0.589898624 -0.001420286
2715000.0 0.589849472 -0.001461542
2739500.0 0.589970752 -0.001537395
2764000.0 0.589956608 -0.001575578
2788500.0 0.589921344 -0.001567329
2813000.0 0.58995648 -0.00168007
2837500.0 0.589959488 -0.001664535
2862000.0 0.589947584 -0.001706034
2886500.0 0.589929472 -0.001728563
2911000.0 0.589946368 -0.001787784
2935500.0 0.589912832 -0.001802095
2960000.0 0.589911424 -0.001861791
2984500.0 0.589885312 -0.001863444
3009000.0 0.589877568 -0.00188394
3033500.0 0.589907328 -0.001926946
3058000.0 0.589952448 -0.002015167
3082500.0 0.58987328 -0.002092712
3107000.0 0.589947712 -0.002107495
3131500.0 0.5898704 -0.002207849
3156000.0 0.589917632 -0.002115143
3180500.0 0.589916736 -0.00216138
3205000.0 0.58992032 -0.002225939
3229500.0 0.589918464 -0.002300634
3254000.0 0.589894976 -0.002340645
3278500.0 0.589904704 -0.002330668
3303000.0 0.589920576 -0.002335474
3327500.0 0.589948288 -0.002354557
3352000.0 0.589803584 -0.00242187
3376500.0 0.589876352 -0.002480919
3401000.0 0.58994848 -0.002472679
3425500.0 0.589867008 -0.002549846
3450000.0 0.589968064 -0.002593776
3474500.0 0.589954944 -0.002636965
3499000.0 0.589914432 -0.002635007
3523500.0 0.589910272 -0.002743067
3548000.0 0.589870336 -0.002762067
3572500.0 0.589902336 -0.002749886
3597000.0 0.58988928 -0.002800793
3621500.0 0.589933376 -0.002834946
3646000.0 0.589974016 -0.002848272
3670500.0 0.589908864 -0.002889062
3695000.0 0.589899584 -0.002965464
3719500.0 0.589932672 -0.003028099
3744000.0 0.589867008 -0.002993896
3768500.0 0.589886592 -0.003070609
3793000.0 0.589937728 -0.003092084
3817500.0 0.589912832 -0.003163398
3842000.0 0.58989472 -0.003176814
3866500.0 0.589951168 -0.003153541
3891000.0 0.589906048 -0.003196558
3915500.0 0.58988416 -0.003208519
3940000.0 0.589902912 -0.003292651
3964500.0 0.589845376 -0.003351835
3989000.0 0.589856 -0.003389235
4013500.0 0.589881856 -0.003403812
4038000.0 0.589928256 -0.003442862
4062500.0 0.589875392 -0.003495663
4087000.0 0.58988224 -0.00346565
4111500.0 0.58991328 -0.003551867
4136000.0 0.589847808 -0.003531066
4160500.0 0.589840768 -0.00358154
4185000.0 0.5898496 -0.003676235
4209500.0 0.589846208 -0.003679575
4234000.0 0.589827328 -0.003773647
4258500.0 0.589885568 -0.003791044
4283000.0 0.589921856 -0.003765675
4307500.0 0.589868608 -0.003808278
4332000.0 0.589882752 -0.003843568
4356500.0 0.589887872 -0.003926621
4381000.0 0.589832896 -0.003921589
4405500.0 0.58986624 -0.00397142
4430000.0 0.58984896 -0.004017967
4454500.0 0.589905344 -0.004046742
4479000.0 0.589855936 -0.004057624
4503500.0 0.589850112 -0.004106008
4528000.0 0.589832896 -0.004173061
4552500.0 0.589896704 -0.004173964
4577000.0 0.589849728 -0.00418876
4601500.0 0.589874432 -0.004230505
4626000.0 0.589866048 -0.004312727
4650500.0 0.58990496 -0.004292291
4675000.0 0.589892992 -0.004370643
4699500.0 0.58980128 -0.004365382
4724000.0 0.589860992 -0.0043862
4748500.0 0.589876608 -0.004429544
4773000.0 0.589849024 -0.004539357
4797500.0 0.589849024 -0.004524342
4822000.0 0.589823168 -0.004557741
4846500.0 0.589838464 -0.004599777
4871000.0 0.58986208 -0.004620504
4895500.0 0.589819648 -0.004641851
4920000.0 0.58982336 -0.004695149
4944500.0 0.589818368 -0.00471991
4969000.0 0.589868672 -0.004744432
4993500.0 0.589857792 -0.004874293
5018000.0 0.589862208 -0.004806591
5042500.0 0.589862016 -0.004860501
5067000.0 0.58988896 -0.004880546
5091500.0 0.589860352 -0.004957205
5116000.0 0.589843584 -0.004961847
5140500.0 0.589823424 -0.004992529
5165000.0 0.58988896 -0.005059039
5189500.0 0.589834624 -0.005097326
5214000.0 0.58987904 -0.005099321
5238500.0 0.589856704 -0.005138038
5263000.0 0.589861824 -0.00519354
5287500.0 0.589850624 -0.005171037
5312000.0 0.589874752 -0.005225156
5336500.0 0.589872384 -0.005265583
5361000.0 0.589822848 -0.005312681
5385500.0 0.589842368 -0.005353091
5410000.0 0.589870656 -0.005448635
5434500.0 0.589872128 -0.00543177
5459000.0 0.589887552 -0.005429054
5483500.0 0.589813312 -0.005512677
5508000.0 0.589822016 -0.005518144
5532500.0 0.589885568 -0.005570936
5557000.0 0.589836288 -0.005583158
5581500.0 0.5898768 -0.005651304
5606000.0 0.58981344 -0.005663728
5630500.0 0.589785408 -0.005667422
5655000.0 0.589777856 -0.005744058
5679500.0 0.58981888 -0.005761912
5704000.0 0.5898512 -0.005844484
5728500.0 0.589866176 -0.005839018
5753000.0 0.58982752 -0.005841105
5777500.0 0.589838144 -0.005898187
5802000.0 0.589810176 -0.005940679
5826500.0 0.589861504 -0.005974392
5851000.0 0.589848128 -0.005970419
5875500.0 0.589852608 -0.006090152
5900000.0 0.58985216 -0.00608117
5924500.0 0.589769152 -0.006119025
5949000.0 0.589799168 -0.00617266
5973500.0 0.58981696 -0.006230281
5998000.0 0.5898384 -0.006227606
6022500.0 0.589782976 -0.006235774
6047000.0 0.589856896 -0.006353853
6071500.0 0.589874496 -0.006342497
6096000.0 0.589871488 -0.006435161
6120500.0 0.58973728 -0.006448699
6145000.0 0.5898208 -0.006414895
6169500.0 0.58981696 -0.006452337
6194000.0 0.589850752 -0.006566542
6218500.0 0.589810112 -0.006601645
6243000.0 0.58979232 -0.00656497
6267500.0 0.589847104 -0.006574756
6292000.0 0.58985152 -0.006641999
6316500.0 0.589801344 -0.006674124
6341000.0 0.589830016 -0.006741794
6365500.0 0.589801664 -0.006725999
6390000.0 0.5898256 -0.006808258
6414500.0 0.589877632 -0.006853119
6439000.0 0.589794432 -0.006865606
6463500.0 0.589791936 -0.006911386
6488000.0 0.58980704 -0.006958817
6512500.0 0.589772992 -0.00703236
6537000.0 0.589788736 -0.006984727
6561500.0 0.589834304 -0.007053649
6586000.0 0.589812992 -0.007085354
6610500.0 0.589846976 -0.00716425
6635000.0 0.589816576 -0.007163058
6659500.0 0.589815488 -0.007235221
6684000.0 0.589847552 -0.00721316
6708500.0 0.589851712 -0.007280067
6733000.0 0.589853632 -0.007297108
6757500.0 0.589754176 -0.007364829
6782000.0 0.58982304 -0.007315667
6806500.0 0.58978112 -0.007358528
6831000.0 0.589755904 -0.007434384
6855500.0 0.589793984 -0.007479131
6880000.0 0.589827584 -0.00748519
6904500.0 0.58979136 -0.007596868
6929000.0 0.589723136 -0.007561265
6953500.0 0.589817152 -0.007598813
6978000.0 0.589802304 -0.007635166
7002500.0 0.589837696 -0.007626744
7027000.0 0.58981312 -0.007745838
7051500.0 0.589811072 -0.007805888
7076000.0 0.58981952 -0.007775714
7100500.0 0.589789056 -0.007825479
7125000.0 0.589787328 -0.007876583
7149500.0 0.589814976 -0.007890926
7174000.0 0.589779712 -0.007922961
7198500.0 0.5897904 -0.008027659
7223000.0 0.589829376 -0.008022444
7247500.0 0.589838976 -0.008046644
7272000.0 0.589818368 -0.008059069
7296500.0 0.589779456 -0.008092727
7321000.0 0.5897936 -0.008152809
7345500.0 0.589784256 -0.008124822
7370000.0 0.589786432 -0.008163089
7394500.0 0.589846464 -0.008288067
7419000.0 0.589745216 -0.008305412
7443500.0 0.589802432 -0.008322751
7468000.0 0.58984704 -0.008363966
7492500.0 0.589817216 -0.008456477
7517000.0 0.589744896 -0.008413953
7541500.0 0.589805376 -0.008484297
7566000.0 0.589743232 -0.008404243
7590500.0 0.589844224 -0.008564522
7615000.0 0.58985056 -0.008572944
7639500.0 0.5897808 -0.008650893
7664000.0 0.589748096 -0.008654668
7688500.0 0.58978176 -0.008666958
7713000.0 0.589794112 -0.008746096
7737500.0 0.589822656 -0.008743466
7762000.0 0.58978848 -0.008820007
7786500.0 0.589760128 -0.008883467
7811000.0 0.589814272 -0.008869318
7835500.0 0.589737088 -0.008921234
7860000.0 0.589755392 -0.008899494
7884500.0 0.589762432 -0.009010377
7909000.0 0.58970432 -0.008983939
7933500.0 0.589725696 -0.009066398
7958000.0 0.58979264 -0.009037965
7982500.0 0.589791744 -0.009099774
8007000.0 0.589707456 -0.009197693
8031500.0 0.589825472 -0.009182818
8056000.0 0.589712384 -0.009212435
8080500.0 0.589652928 -0.009272859
8105000.0 0.589742208 -0.00936392
8129500.0 0.589687232 -0.009363236
8154000.0 0.589724288 -0.0093829
8178500.0 0.589761024 -0.009399236
8203000.0 0.589707392 -0.009464671
8227500.0 0.58975104 -0.009506646
8252000.0 0.589729728 -0.009471604
8276500.0 0.589690048 -0.009546406
8301000.0 0.589764608 -0.009577692
8325500.0 0.58976096 -0.009649926
8350000.0 0.589753792 -0.009610472
8374500.0 0.589749568 -0.009642597
8399000.0 0.589818688 -0.009700743
8423500.0 0.589766144 -0.0096891
8448000.0 0.589706112 -0.009778812
8472500.0 0.589723392 -0.009811329
8497000.0 0.589717888 -0.009811881
8521500.0 0.58975232 -0.009863898
8546000.0 0.589712448 -0.009918967
8570500.0 0.589713024 -0.009964696
8595000.0 0.58974976 -0.009969187
8619500.0 0.589731904 -0.010006384
8644000.0 0.589707648 -0.010072292
8668500.0 0.589671872 -0.010101091
8693000.0 0.589695616 -0.010088888
8717500.0 0.589726976 -0.010178073
8742000.0 0.589697216 -0.010180034
8766500.0 0.589720064 -0.010274808
8791000.0 0.589716736 -0.010259488
8815500.0 0.589701824 -0.01024962
8840000.0 0.589722432 -0.01032425
8864500.0 0.58967136 -0.0103832
8889000.0 0.589707968 -0.010436133
8913500.0 0.589753408 -0.010467371
8938000.0 0.589719232 -0.010509802
8962500.0 0.5897536 -0.010519885
8987000.0 0.58975392 -0.01058071
9011500.0 0.589751104 -0.010588841
9036000.0 0.589714944 -0.010621198
9060500.0 0.589718976 -0.010627068
9085000.0 0.589674112 -0.010668324
9109500.0 0.589663232 -0.010701215
9134000.0 0.589684224 -0.010799771
9158500.0 0.589679808 -0.010792504
9183000.0 0.58972096 -0.01081474
9207500.0 0.589656 -0.010875818
9232000.0 0.589750272 -0.010866334
9256500.0 0.5897024 -0.010911757
9281000.0 0.589668032 -0.011017817
9305500.0 0.58972576 -0.010994883
9330000.0 0.58964736 -0.011011409
9354500.0 0.589630464 -0.011061578
9379000.0 0.589663552 -0.011102099
9403500.0 0.58971008 -0.011209947
9428000.0 0.589629504 -0.01114076
9452500.0 0.589721664 -0.011209962
9477000.0 0.589683072 -0.011276206
9501500.0 0.589658112 -0.01125992
9526000.0 0.589723328 -0.011329203
9550500.0 0.589698048 -0.011289425
9575000.0 0.589660032 -0.011341786
9599500.0 0.589656064 -0.011421619
9624000.0 0.589684416 -0.011446391
9648500.0 0.589664128 -0.011436629
9673000.0 0.589668096 -0.011528927
9697500.0 0.589628992 -0.011514491
9722000.0 0.589649408 -0.011553258
9746500.0 0.589696832 -0.011579694
9771000.0 0.58968992 -0.011636382
9795500.0 0.589655232 -0.011629869
9820000.0 0.589648896 -0.011699364
9844500.0 0.58967744 -0.01174459
9869000.0 0.589638144 -0.011809647
9893500.0 0.589603136 -0.011778121
9918000.0 0.589636736 -0.011870182
9942500.0 0.589606976 -0.011931804
9967000.0 0.589617664 -0.011960457
9991500.0 0.589646784 -0.011965664
10016000.0 0.589673024 -0.011984934
10040500.0 0.589649024 -0.012059806
10065000.0 0.58967744 -0.012063908
10089500.0 0.58966272 -0.012150505
10114000.0 0.589689792 -0.012116513
10138500.0 0.589650752 -0.012125812
10163000.0 0.589630016 -0.012175919
10187500.0 0.589572224 -0.012198443
10212000.0 0.589635584 -0.012288988
10236500.0 0.589629376 -0.012352298
10261000.0 0.589574912 -0.012324724
10285500.0 0.58960896 -0.012384767
10310000.0 0.589580288 -0.012384773
10334500.0 0.589627456 -0.012476314
10359000.0 0.58963008 -0.012497044
10383500.0 0.589658816 -0.012502037
10408000.0 0.589674944 -0.012536717
10432500.0 0.589636416 -0.012572907
10457000.0 0.589606208 -0.012549019
10481500.0 0.589580672 -0.012607338
10506000.0 0.589621824 -0.012666464
10530500.0 0.589646976 -0.012741033
10555000.0 0.589675264 -0.012787458
10579500.0 0.589645952 -0.012802666
10604000.0 0.58961696 -0.012837559
10628500.0 0.589646464 -0.012898366
10653000.0 0.589583808 -0.012905626
10677500.0 0.589657792 -0.012958372
10702000.0 0.589628992 -0.013000583
10726500.0 0.5896352 -0.012941736
10751000.0 0.589582336 -0.013033941
10775500.0 0.5896336 -0.013049442
10800000.0 0.589634816 -0.013120526
10824500.0 0.589617088 -0.013109645
10849000.0 0.589602304 -0.013150018
10873500.0 0.58957184 -0.013235006
10898000.0 0.589601728 -0.013153122
10922500.0 0.589589696 -0.013263872
10947000.0 0.589579136 -0.013266257
10971500.0 0.58957184 -0.013317025
10996000.0 0.58958528 -0.013406909
11020500.0 0.589616256 -0.013385558
11045000.0 0.589612992 -0.013419558
11069500.0 0.589621696 -0.013478533
11094000.0 0.589583552 -0.013538925
11118500.0 0.58959296 -0.013548269
11143000.0 0.589594432 -0.013510009
11167500.0 0.589556928 -0.013589887
11192000.0 0.58960256 -0.013659572
11216500.0 0.589553728 -0.013563012
11241000.0 0.589593664 -0.013686047
11265500.0 0.5895776 -0.013755262
11290000.0 0.589486272 -0.013733443
11314500.0 0.589611776 -0.013811226
11339000.0 0.58952704 -0.013859354
11363500.0 0.589610816 -0.013863371
11388000.0 0.589600832 -0.013889496
11412500.0 0.589587072 -0.013947434
11437000.0 0.589556544 -0.013981451
11461500.0 0.589566912 -0.014018346
11486000.0 0.589544576 -0.014048014
11510500.0 0.589619008 -0.014063095
11535000.0 0.58958112 -0.014105276
11559500.0 0.589560832 -0.014167202
11584000.0 0.589554624 -0.01419646
11608500.0 0.589587328 -0.014223535
11633000.0 0.589620032 -0.014255467
11657500.0 0.5895904 -0.014317034
11682000.0 0.589568128 -0.014333818
11706500.0 0.58951392 -0.014321267
11731000.0 0.589558912 -0.014416638
11755500.0 0.5895536 -0.0144073
11780000.0 0.589559488 -0.014442056
11804500.0 0.589579712 -0.014493933
11829000.0 0.589558272 -0.014531218
11853500.0 0.589566784 -0.014506599
11878000.0 0.58953632 -0.014599683
11902500.0 0.589527936 -0.014609005
11927000.0 0.589507328 -0.014679694
11951500.0 0.58956864 -0.014692749
11976000.0 0.589484864 -0.014750989
12000500.0 0.589497216 -0.014791349
12025000.0 0.58954176 -0.014777991
12049500.0 0.589585216 -0.014825932
12074000.0 0.589494848 -0.01488325
12098500.0 0.589553984 -0.014881287
12123000.0 0.589517504 -0.014907502
12147500.0 0.589579968 -0.014957633
12172000.0 0.589498048 -0.015006421
12196500.0 0.58951168 -0.014997254
12221000.0 0.589534016 -0.015123019
12245500.0 0.58955552 -0.01514517
12270000.0 0.589488192 -0.01517724
12294500.0 0.589480448 -0.015230459
12319000.0 0.589485632 -0.015268279
12343500.0 0.589555712 -0.015245106
12368000.0 0.58952032 -0.015326749
12392500.0 0.589528768 -0.015300914
12417000.0 0.589556352 -0.015370397
12441500.0 0.58952928 -0.015369954
12466000.0 0.589500864 -0.015472761
12490500.0 0.589553088 -0.015481718
12515000.0 0.589539456 -0.015538023
12539500.0 0.589521856 -0.015572017
12564000.0 0.58953824 -0.015510643
12588500.0 0.5895632 -0.015592711
12613000.0 0.58950112 -0.015648485
12637500.0 0.589465216 -0.015659772
12662000.0 0.589519552 -0.015641716
12686500.0 0.589502272 -0.015739522
12711000.0 0.589492032 -0.015798469
12735500.0 0.589512384 -0.015847309
12760000.0 0.58957056 -0.01592921
12784500.0 0.589490752 -0.015894872
12809000.0 0.589486272 -0.015863641
12833500.0 0.589499456 -0.015935051
12858000.0 0.589511616 -0.015975208
12882500.0 0.589466112 -0.016003278
12907000.0 0.589561792 -0.016061789
12931500.0 0.589516032 -0.016064704
12956000.0 0.589495808 -0.016144302
12980500.0 0.589488896 -0.016156056
13005000.0 0.58954432 -0.016212261
13029500.0 0.589557824 -0.016202311
13054000.0 0.589549504 -0.016242072
13078500.0 0.589483712 -0.016329073
13103000.0 0.589521408 -0.016322507
13127500.0 0.589425216 -0.016371828
13152000.0 0.589466752 -0.016401422
13176500.0 0.589524864 -0.016440429
13201000.0 0.589501824 -0.016429127
13225500.0 0.589539584 -0.016485196
13250000.0 0.58950464 -0.016511769
13274500.0 0.58949248 -0.016577999
13299000.0 0.589468736 -0.016571321
13323500.0 0.589428992 -0.016611053
13348000.0 0.589492352 -0.016693721
13372500.0 0.589453824 -0.016685088
13397000.0 0.589472576 -0.016736905
13421500.0 0.589464896 -0.016784264
13446000.0 0.589512832 -0.016776149
13470500.0 0.589425856 -0.016867684
13495000.0 0.589464832 -0.016914196
13519500.0 0.58942624 -0.01689195
13544000.0 0.589494208 -0.01693027
13568500.0 0.589490624 -0.016981636
13593000.0 0.58948512 -0.016970646
13617500.0 0.58944832 -0.017088886
13642000.0 0.589504128 -0.017031334
13666500.0 0.589499904 -0.017111376
13691000.0 0.58946336 -0.017102012
13715500.0 0.589431616 -0.017170202
13740000.0 0.589406464 -0.017222654
13764500.0 0.589394176 -0.017202032
13789000.0 0.589453568 -0.017277274
13813500.0 0.58942432 -0.017288296
13838000.0 0.589462016 -0.017309408
13862500.0 0.5894128 -0.017373056
13887000.0 0.589490304 -0.017462478
13911500.0 0.589420352 -0.017414012
13936000.0 0.58945472 -0.017487132
13960500.0 0.589421824 -0.01753201
13985000.0 0.589430208 -0.017567378
14009500.0 0.589384064 -0.017591496
14034000.0 0.5894048 -0.017664118
14058500.0 0.589450176 -0.017668454
14083000.0 0.589386752 -0.017711192
14107500.0 0.589415488 -0.017722392
14132000.0 0.589402496 -0.017829286
14156500.0 0.58942016 -0.017783764
14181000.0 0.589446976 -0.017796204
14205500.0 0.589457984 -0.017857764
14230000.0 0.58939328 -0.017930334
14254500.0 0.589420224 -0.01790319
14279000.0 0.589473152 -0.017970524
14303500.0 0.58942912 -0.018034046
14328000.0 0.58938336 -0.018035456
14352500.0 0.589392576 -0.018021146
14377000.0 0.58944288 -0.018160858
14401500.0 0.589390912 -0.018151372
14426000.0 0.589408256 -0.018164808
14450500.0 0.58940544 -0.018289326
14475000.0 0.589442112 -0.018229874
14499500.0 0.589394176 -0.01826157
14524000.0 0.589448832 -0.018308242
14548500.0 0.589449344 -0.01837387
14573000.0 0.5894176 -0.018350028
14597500.0 0.589408512 -0.01844627
14622000.0 0.589360128 -0.01843677
14646500.0 0.5893552 -0.018496318
14671000.0 0.589425856 -0.01854779
14695500.0 0.589342208 -0.018561704
14720000.0 0.589358336 -0.018612446
14744500.0 0.589337984 -0.018672442
14769000.0 0.589385024 -0.018653746
14793500.0 0.589338304 -0.018725458
14818000.0 0.58941344 -0.018722202
14842500.0 0.589375104 -0.018775454
14867000.0 0.589375808 -0.018804334
14891500.0 0.589385728 -0.018834712
14916000.0 0.58939776 -0.018889112
14940500.0 0.589339968 -0.018914448
