! Created with skrf (http://scikit-rf.org).
# Hz S RI R 50.0 
!freq ReS11 ImS11
1000000.0 0.589630336 0.000830881
1024500.0 0.58979232 0.000902769
1049000.0 0.589717376 0.000769482
1073500.0 0.589776896 0.000752988
1098000.0 0.589709952 0.000726093
1122500.0 0.589744896 0.000665533
1147000.0 0.589776448 0.000594357
1171500.0 0.589752128 0.000585636
1196000.0 0.589764864 0.000544252
1220500.0 0.589729792 0.000489167
1245000.0 0.589747392 0.000435005
1269500.0 0.589785536 0.000412258
1294000.0 0.58978336 0.000383106
1318500.0 0.589772224 0.000353216
1343000.0 0.58975904 0.000345234
1367500.0 0.589732288 0.000221841
1392000.0 0.589765568 0.000217793
1416500.0 0.589753024 0.000157204
1441000.0 0.58976832 0.000122169
1465500.0 0.589695552 9.2526e-05
1490000.0 0.589739072 7.9314e-05
1514500.0 0.589724288 4.1863e-05
1539000.0 0.589750656 -3.9254e-05
1563500.0 0.589739776 -0.000128606
1588000.0 0.589718656 -1.6675e-05
1612500.0 0.589795264 -0.000184946
1637000.0 0.589738304 -0.000188879
1661500.0 0.589756736 -0.000223449
1686000.0 0.589791424 -0.000251486
1710500.0 0.589750592 -0.000285983
1735000.0 0.589800448 -0.000324155
1759500.0 0.589784896 -0.000351729
1784000.0 0.589745024 -0.000429582
1808500.0 0.589754368 -0.000489713
1833000.0 0.589753856 -0.000453805
1857500.0 0.58974752 -0.000538888
1882000.0 0.58981792 -0.000563477
1906500.0 0.589734272 -0.000602587
1931000.0 0.589746112 -0.000699313
1955500.0 0.589801856 -0.000710437
1980000.0 0.589812736 -0.000698881
2004500.0 0.58979168 -0.000688427
2029000.0 0.589788352 -0.000810365
2053500.0 0.589773568 -0.000836511
2078000.0 0.589759424 -0.000869483
2102500.0 0.589776064 -0.000892393
2127000.0 0.589799232 -0.000913747
2151500.0 0.589790528 -0.001019975
2176000.0 0.58969856 -0.001011401
2200500.0 0.58976288 -0.001075448
2225000.0 0.589751168 -0.001057852
2249500.0 0.589780352 -0.001110751
2274000.0 0.589745472 -0.001148286
2298500.0 0.589803776 -0.001188352
2323000.0 0.589787136 -0.001211478
2347500.0 0.589777984 -0.001318264
2372000.0 0.589782016 -0.001275435
2396500.0 0.589800064 -0.00139119
2421000.0 0.589776384 -0.001377055
2445500.0 0.589740288 -0.001379659
2470000.0 0.589799552 -0.001480948
2494500.0 0.58971872 -0.001550283
2519000.0 0.589811968 -0.001487855
2543500.0 0.589764352 -0.001602266
2568000.0 0.589743168 -0.001581519
2592500.0 0.589764544 -0.001630178
2617000.0 0.589849216 -0.001645205
2641500.0 0.589740672 -0.001701461
2666000.0 0.589793856 -0.001789205
2690500.0 0.589732736 -0.001797328
2715000.0 0.5897216 -0.001787544
2739500.0 0.589742208 -0.001863814
2764000.0 0.589784896 -0.001923292
2788500.0 0.589732992 -0.001932374
2813000.0 0.58980128 -0.00191874
2837500.0 0.589768192 -0.002020931
2862000.0 0.589764736 -0.002050224
2886500.0 0.58978592 -0.002124433
2911000.0 0.58980288 -0.002106261
2935500.0 0.589708736 -0.002098808
2960000.0 0.589770048 -0.002192872
2984500.0 0.58976928 -0.002223331
3009000.0 0.58975488 -0.002294563
3033500.0 0.589765696 -0.002301805
3058000.0 0.589803136 -0.002324978
3082500.0 0.589785472 -0.002397844
3107000.0 0.589742592 -0.002393647
3131500.0 0.589698112 -0.002460581
3156000.0 0.589793792 -0.002459547
3180500.0 0.589713728 -0.00251649
3205000.0 0.58977696 -0.002544141
3229500.0 0.589777536 -0.002600412
3254000.0 0.589752896 -0.00262733
3278500.0 0.589795584 -0.002581207
3303000.0 0.589736192 -0.002678324
3327500.0 0.589750976 -0.002778822
3352000.0 0.58976896 -0.002808275
3376500.0 0.589742208 -0.00279825
3401000.0 0.589757504 -0.002869582
3425500.0 0.589813504 -0.002960874
3450000.0 0.589772416 -0.002955734
3474500.0 0.589774144 -0.002936962
3499000.0 0.58979072 -0.002963309
3523500.0 0.589733568 -0.003014702
3548000.0 0.589727872 -0.003077425
3572500.0 0.58973248 -0.003105544
3597000.0 0.589780608 -0.003131025
3621500.0 0.589781568 -0.003167508
3646000.0 0.589726272 -0.003223613
3670500.0 0.58975072 -0.003210407
3695000.0 0.589784192 -0.003291617
3719500.0 0.58968064 -0.003356654
3744000.0 0.589740544 -0.00337499
3768500.0 0.589732992 -0.003428558
3793000.0 0.589766016 -0.003476564
3817500.0 0.58976224 -0.003444728
3842000.0 0.589752128 -0.003491913
3866500.0 0.58974208 -0.003537622
3891000.0 0.589783616 -0.003537096
3915500.0 0.589744 -0.003639524
3940000.0 0.589728256 -0.003713966
3964500.0 0.589782784 -0.003732084
3989000.0 0.589762944 -0.003703244
4013500.0 0.589717376 -0.003748772
4038000.0 0.589780224 -0.003769093
4062500.0 0.58978016 -0.003869741
4087000.0 0.58975968 -0.003863314
4111500.0 0.589737856 -0.003861636
4136000.0 0.589717376 -0.003862975
4160500.0 0.589825088 -0.004013311
4185000.0 0.589782784 -0.00397381
4209500.0 0.58974944 -0.004030298
4234000.0 0.589695872 -0.004030919
4258500.0 0.589735552 -0.004105682
4283000.0 0.589693696 -0.004122006
4307500.0 0.58970048 -0.0042047
4332000.0 0.589752896 -0.00420534
4356500.0 0.589693888 -0.004188459
4381000.0 0.589742656 -0.004246848
4405500.0 0.589711872 -0.004354344
4430000.0 0.58970656 -0.004362005
4454500.0 0.589744 -0.004379367
4479000.0 0.589721856 -0.004391765
4503500.0 0.589704128 -0.00450781
4528000.0 0.589687232 -0.004473088
4552500.0 0.589737024 -0.004513651
4577000.0 0.589718848 -0.00453486
4601500.0 0.589738688 -0.004618185
4626000.0 0.58974016 -0.004633083
4650500.0 0.589703424 -0.004684898
4675000.0 0.589735872 -0.004707045
4699500.0 0.589742464 -0.004746115
4724000.0 0.589718784 -0.004755025
4748500.0 0.5897424 -0.004785203
4773000.0 0.589678848 -0.004806089
4797500.0 0.589707776 -0.004876481
4822000.0 0.589758912 -0.00490035
4846500.0 0.589757696 -0.004910301
4871000.0 0.58972352 -0.005006118
4895500.0 0.589633856 -0.005049828
4920000.0 0.589686784 -0.005128552
4944500.0 0.589655488 -0.005068132
4969000.0 0.589703168 -0.005163014
4993500.0 0.589716352 -0.005190364
5018000.0 0.58970432 -0.005156663
5042500.0 0.58972256 -0.005212828
5067000.0 0.589708224 -0.005284217
5091500.0 0.589768192 -0.005270538
5116000.0 0.589688896 -0.005357361
5140500.0 0.589672896 -0.005363578
5165000.0 0.58964672 -0.005407527
5189500.0 0.589696896 -0.005451537
5214000.0 0.589688128 -0.005413113
5238500.0 0.589672256 -0.005490817
5263000.0 0.5896688 -0.005539974
5287500.0 0.589725376 -0.00557868
5312000.0 0.589697792 -0.005691007
5336500.0 0.589609536 -0.005635741
5361000.0 0.589739136 -0.005706874
5385500.0 0.589712512 -0.005693892
5410000.0 0.589738304 -0.00577955
5434500.0 0.589664576 -0.005764934
5459000.0 0.58963008 -0.005813173
5483500.0 0.589677696 -0.005850029
5508000.0 0.589653376 -0.005929321
5532500.0 0.589659264 -0.005994492
5557000.0 0.58969984 -0.005946388
5581500.0 0.589688448 -0.005989346
5606000.0 0.589694528 -0.006007451
5630500.0 0.58971648 -0.006056641
5655000.0 0.589746944 -0.006129324
5679500.0 0.5896608 -0.006145566
5704000.0 0.589655104 -0.006113555
5728500.0 0.58966368 -0.006215976
5753000.0 0.589667712 -0.006257863
5777500.0 0.589732288 -0.006345621
5802000.0 0.589714752 -0.006267747
5826500.0 0.589668864 -0.00634861
5851000.0 0.589650368 -0.006390113
5875500.0 0.589642816 -0.006414938
5900000.0 0.589696 -0.006481413
5924500.0 0.589724928 -0.006537622
5949000.0 0.58973664 -0.006559964
5973500.0 0.5896768 -0.006523174
5998000.0 0.589733952 -0.006619105
6022500.0 0.589663232 -0.006629687
6047000.0 0.589672256 -0.006659626
6071500.0 0.589686528 -0.006702371
6096000.0 0.589693952 -0.006707968
6120500.0 0.589693696 -0.006728543
6145000.0 0.58966688 -0.00682765
6169500.0 0.589710656 -0.006811817
6194000.0 0.589665472 -0.006875181
6218500.0 0.589640448 -0.006914671
6243000.0 0.589719808 -0.006973189
6267500.0 0.589670528 -0.006971206
6292000.0 0.589710528 -0.007000516
6316500.0 0.589664192 -0.007027555
6341000.0 0.58971168 -0.007120478
6365500.0 0.589654592 -0.007149927
6390000.0 0.589688896 -0.007130585
6414500.0 0.5896784 -0.007194596
6439000.0 0.589634048 -0.007195752
6463500.0 0.589617408 -0.007284493
6488000.0 0.589677888 -0.007296688
6512500.0 0.589705472 -0.007354057
6537000.0 0.589683008 -0.007412112
6561500.0 0.589620992 -0.007417617
6586000.0 0.589695296 -0.007405579
6610500.0 0.58966656 -0.007452319
6635000.0 0.589693184 -0.007531103
6659500.0 0.589616448 -0.007471388
6684000.0 0.589670464 -0.007576164
6708500.0 0.589687808 -0.007558595
6733000.0 0.589643008 -0.007638305
6757500.0 0.589682432 -0.007691605
6782000.0 0.58966368 -0.007743007
6806500.0 0.589613248 -0.007710896
6831000.0 0.589684864 -0.007829795
6855500.0 0.589646848 -0.007826296
6880000.0 0.58964768 -0.007855946
6904500.0 0.589653824 -0.007944889
6929000.0 0.589676352 -0.007977184
6953500.0 0.589623872 -0.007982908
6978000.0 0.589653888 -0.007995535
7002500.0 0.589614016 -0.008050224
7027000.0 0.589674048 -0.008079923
7051500.0 0.589640192 -0.008126463
7076000.0 0.589622528 -0.008133024
7100500.0 0.589699264 -0.008165287
7125000.0 0.589636096 -0.00820807
7149500.0 0.589638656 -0.008325251
7174000.0 0.589699776 -0.008326376
7198500.0 0.589636544 -0.008381647
7223000.0 0.589667968 -0.008377293
7247500.0 0.589611648 -0.008381375
7272000.0 0.589681152 -0.008461926
7296500.0 0.58965632 -0.008484826
7321000.0 0.589682176 -0.008511437
7345500.0 0.589588544 -0.00853658
7370000.0 0.589606592 -0.008599135
7394500.0 0.58959648 -0.008637621
7419000.0 0.58964032 -0.008626788
7443500.0 0.589592768 -0.008678509
7468000.0 0.58963328 -0.008690442
7492500.0 0.589643712 -0.00872265
7517000.0 0.589660224 -0.008822945
7541500.0 0.589583808 -0.008822227
7566000.0 0.589674624 -0.00885001
7590500.0 0.58962688 -0.008865196
7615000.0 0.589696256 -0.008934076
7639500.0 0.589620224 -0.008942471
7664000.0 0.58963392 -0.008994055
7688500.0 0.589607808 -0.009090939
7713000.0 0.589644992 -0.009051456
7737500.0 0.5896 -0.009064055
7762000.0 0.589653056 -0.009185072
7786500.0 0.589624192 -0.00922678
7811000.0 0.589601984 -0.009203594
7835500.0 0.58961728 -0.009261258
7860000.0 0.589640512 -0.009281224
7884500.0 0.589623808 -0.009356102
7909000.0 0.5895552 -0.009409698
7933500.0 0.589571776 -0.009474854
7958000.0 0.589613696 -0.009388336
7982500.0 0.589581888 -0.009459023
8007000.0 0.589587328 -0.009518188
8031500.0 0.589625536 -0.009500238
8056000.0 0.58960896 -0.009650116
8080500.0 0.589586112 -0.009609884
8105000.0 0.589638016 -0.009636089
8129500.0 0.589632832 -0.009667569
8154000.0 0.589603968 -0.009712151
8178500.0 0.58959136 -0.009727492
8203000.0 0.589596416 -0.00977083
8227500.0 0.589621696 -0.009799038
8252000.0 0.589618112 -0.009884391
8276500.0 0.589682496 -0.009861329
8301000.0 0.589572992 -0.009962141
8325500.0 0.589529408 -0.009936891
8350000.0 0.589578048 -0.01003192
8374500.0 0.58955968 -0.010063754
8399000.0 0.589574208 -0.010035299
8423500.0 0.589522752 -0.010162233
8448000.0 0.589602432 -0.010182743
8472500.0 0.589549952 -0.010145396
8497000.0 0.589544512 -0.010204967
8521500.0 0.589570432 -0.010223995
8546000.0 0.58958272 -0.010242286
8570500.0 0.589574656 -0.01028493
8595000.0 0.589566528 -0.010417439
8619500.0 0.58958464 -0.010395661
8644000.0 0.589598144 -0.010439414
8668500.0 0.589593024 -0.010495655
8693000.0 0.589581376 -0.01052071
8717500.0 0.589551488 -0.010499299
8742000.0 0.589531008 -0.010610383
8766500.0 0.589592 -0.010563483
8791000.0 0.589527936 -0.010623979
8815500.0 0.589591488 -0.010697492
8840000.0 0.58956608 -0.010734482
8864500.0 0.58954912 -0.01073399
8889000.0 0.5895616 -0.010812413
8913500.0 0.58957856 -0.010796495
8938000.0 0.58950848 -0.01088398
8962500.0 0.589630464 -0.010936214
8987000.0 0.589533056 -0.01093405
9011500.0 0.58955232 -0.01093768
9036000.0 0.589553728 -0.010984699
9060500.0 0.589558272 -0.010996347
9085000.0 0.589581312 -0.011053088
9109500.0 0.589553472 -0.011069622
9134000.0 0.589556544 -0.011151808
9158500.0 0.5895456 -0.011231114
9183000.0 0.589545856 -0.01119689
9207500.0 0.589522112 -0.01120249
9232000.0 0.589560448 -0.011238672
9256500.0 0.589469312 -0.011253885
9281000.0 0.5895872 -0.011384034
9305500.0 0.589560384 -0.011375765
9330000.0 0.589503296 -0.011356757
9354500.0 0.589571712 -0.011428033
9379000.0 0.58953408 -0.011507193
9403500.0 0.589497728 -0.011553336
9428000.0 0.589489536 -0.011499979
9452500.0 0.589497664 -0.011583515
9477000.0 0.589538496 -0.011621332
9501500.0 0.58950304 -0.011646716
9526000.0 0.589475008 -0.011649949
9550500.0 0.58958528 -0.011677494
9575000.0 0.589497408 -0.011732006
9599500.0 0.589520832 -0.011786251
9624000.0 0.589530496 -0.011870539
9648500.0 0.589506688 -0.011837007
9673000.0 0.58947264 -0.011882266
9697500.0 0.589525184 -0.011970853
9722000.0 0.589509696 -0.01197956
9746500.0 0.589550016 -0.012030866
9771000.0 0.589512576 -0.011962657
9795500.0 0.589546496 -0.012082429
9820000.0 0.589557376 -0.012020182
9844500.0 0.589496448 -0.012140627
9869000.0 0.589542656 -0.012176427
9893500.0 0.589560512 -0.012255028
9918000.0 0.589496384 -0.012178743
9942500.0 0.589479552 -0.012281383
9967000.0 0.58951232 -0.012303678
9991500.0 0.589495552 -0.012320784
10016000.0 0.589478656 -0.012389073
10040500.0 0.58949408 -0.012379751
10065000.0 0.58952448 -0.012398082
10089500.0 0.589483008 -0.012472159
10114000.0 0.589465152 -0.012483675
10138500.0 0.589475008 -0.012574095
10163000.0 0.58953184 -0.012600481
10187500.0 0.589523904 -0.012647054
10212000.0 0.58945856 -0.012684579
10236500.0 0.589492928 -0.012673301
10261000.0 0.589513344 -0.012745302
10285500.0 0.589460864 -0.012733388
10310000.0 0.589536576 -0.012777079
10334500.0 0.589533312 -0.012805978
10359000.0 0.589500864 -0.012866288
10383500.0 0.5894672 -0.012873378
10408000.0 0.589481216 -0.012888036
10432500.0 0.589516288 -0.01293876
10457000.0 0.589441728 -0.012977454
10481500.0 0.589482048 -0.01303663
10506000.0 0.589461568 -0.013015809
10530500.0 0.589450944 -0.01312838
10555000.0 0.589463488 -0.013189552
10579500.0 0.589507456 -0.013170276
10604000.0 0.589452416 -0.013201831
10628500.0 0.589507264 -0.013222658
10653000.0 0.589454528 -0.013298712
10677500.0 0.589410688 -0.013322632
10702000.0 0.589447808 -0.013329535
10726500.0 0.589482624 -0.01338341
10751000.0 0.58944832 -0.013434414
10775500.0 0.589503488 -0.013462721
10800000.0 0.589478656 -0.013473502
10824500.0 0.58946368 -0.013516023
10849000.0 0.589477696 -0.013556973
10873500.0 0.5894 -0.013542312
10898000.0 0.589452096 -0.013657928
10922500.0 0.5894576 -0.013648873
10947000.0 0.589451328 -0.013715792
10971500.0 0.589439616 -0.0137842
10996000.0 0.58945984 -0.013781612
11020500.0 0.589473856 -0.013765165
11045000.0 0.589481792 -0.013845765
11069500.0 0.589446912 -0.013838482
11094000.0 0.589447616 -0.013831454
11118500.0 0.58943712 -0.013883465
11143000.0 0.589452736 -0.01397742
11167500.0 0.58946112 -0.013972848
11192000.0 0.589450368 -0.014008249
11216500.0 0.589429504 -0.014105039
11241000.0 0.589421248 -0.014121893
11265500.0 0.589430528 -0.014155986
11290000.0 0.589403072 -0.014173571
11314500.0 0.589415552 -0.014182645
11339000.0 0.58941632 -0.014244513
11363500.0 0.589457984 -0.014294399
11388000.0 0.589437248 -0.014331922
11412500.0 0.589476928 -0.014361195
11437000.0 0.589458816 -0.014323669
11461500.0 0.589421184 -0.014398996
11486000.0 0.589477504 -0.014472281
11510500.0 0.589443712 -0.014508375
11535000.0 0.589453888 -0.014536924
11559500.0 0.589386624 -0.014459648
11584000.0 0.589415168 -0.014595488
11608500.0 0.589415488 -0.014589317
11633000.0 0.58949408 -0.014636418
11657500.0 0.589434176 -0.014631829
11682000.0 0.589393664 -0.014754929
11706500.0 0.58939968 -0.014760427
11731000.0 0.589387392 -0.014783463
11755500.0 0.58941344 -0.014790503
11780000.0 0.589377984 -0.014841379
11804500.0 0.589390528 -0.014889999
11829000.0 0.589435264 -0.014922428
11853500.0 0.589423552 -0.014975444
11878000.0 0.589432896 -0.014971062
11902500.0 0.589421888 -0.014991745
11927000.0 0.589412224 -0.015054664
11951500.0 0.589406336 -0.015034234
11976000.0 0.589435648 -0.015115872
12000500.0 0.589385344 -0.015161111
12025000.0 0.589425472 -0.01519953
12049500.0 0.589363008 -0.015213368
12074000.0 0.589406464 -0.015287654
12098500.0 0.5894096 -0.015316135
12123000.0 0.58936448 -0.015312814
12147500.0 0.589365888 -0.015413297
12172000.0 0.589408448 -0.015377176
12196500.0 0.589366528 -0.015405126
12221000.0 0.589339968 -0.015510981
12245500.0 0.5893888 -0.015458989
12270000.0 0.589424384 -0.015579756
12294500.0 0.589401856 -0.015620948
12319000.0 0.589375872 -0.015581561
12343500.0 0.589410432 -0.01561181
12368000.0 0.589379264 -0.015712657
12392500.0 0.589366336 -0.015685482
12417000.0 0.589370496 -0.015747393
12441500.0 0.589382208 -0.015775005
12466000.0 0.589439552 -0.015811131
12490500.0 0.589394688 -0.015864734
12515000.0 0.58943104 -0.01592329
12539500.0 0.589336832 -0.015904638
12564000.0 0.589327872 -0.015945571
12588500.0 0.589395584 -0.015972382
12613000.0 0.58935296 -0.015990053
12637500.0 0.5893664 -0.016043045
12662000.0 0.589393152 -0.016106748
12686500.0 0.589362752 -0.01614032
12711000.0 0.589398272 -0.016160107
12735500.0 0.589368896 -0.01617221
12760000.0 0.58936768 -0.016174082
12784500.0 0.589384896 -0.016316791
12809000.0 0.589401152 -0.016302482
12833500.0 0.589276096 -0.016332211
12858000.0 0.589398336 -0.016329859
12882500.0 0.589353664 -0.016399574
12907000.0 0.589342464 -0.01642341
12931500.0 0.589382912 -0.016466922
12956000.0 0.589296256 -0.016539284
12980500.0 0.5893776 -0.016561421
13005000.0 0.589375168 -0.016559367
13029500.0 0.589356544 -0.016614201
13054000.0 0.589361024 -0.016669637
13078500.0 0.589340096 -0.016624747
13103000.0 0.589355072 -0.016730449
13127500.0 0.589327744 -0.016747708
13152000.0 0.589346048 -0.016757487
13176500.0 0.589311552 -0.016843828
13201000.0 0.58929888 -0.01680737
13225500.0 0.589306752 -0.016907512
13250000.0 0.58935264 -0.01694617
13274500.0 0.589328128 -0.016988652
13299000.0 0.589353536 -0.016939036
13323500.0 0.589374464 -0.01704248
13348000.0 0.589328704 -0.01703966
13372500.0 0.589311808 -0.01706263
13397000.0 0.589308672 -0.017186578
13421500.0 0.589324352 -0.017164706
13446000.0 0.589333376 -0.017210264
13470500.0 0.589353408 -0.017231816
13495000.0 0.589311872 -0.01727333
13519500.0 0.589317248 -0.01727837
13544000.0 0.589278912 -0.017361572
13568500.0 0.589398912 -0.017389176
13593000.0 0.58926592 -0.017414714
13617500.0 0.58926432 -0.017466818
13642000.0 0.58927008 -0.017488494
13666500.0 0.589281664 -0.017485404
13691000.0 0.589290496 -0.017579308
13715500.0 0.589317312 -0.01761458
13740000.0 0.5892768 -0.01760538
13764500.0 0.589304064 -0.017588794
13789000.0 0.589307264 -0.017711462
13813500.0 0.589305664 -0.017682784
13838000.0 0.589336448 -0.017722418
13862500.0 0.589284544 -0.01774564
13887000.0 0.58929632 -0.017798924
13911500.0 0.589319104 -0.017844262
13936000.0 0.589249728 -0.017902526
13960500.0 0.58929536 -0.017945948
13985000.0 0.589284352 -0.017906442
14009500.0 0.58929952 -0.018006812
14034000.0 0.589287744 -0.0180217
14058500.0 0.589267136 -0.01807679
14083000.0 0.589294464 -0.018180182
14107500.0 0.589319232 -0.018078974
14132000.0 0.589286656 -0.018109236
14156500.0 0.589266688 -0.018221782
14181000.0 0.589301504 -0.018315064
14205500.0 0.589343616 -0.018243452
14230000.0 0.589299648 -0.018294738
14254500.0 0.589251008 -0.018327416
14279000.0 0.5892672 -0.01840959
14303500.0 0.589268608 -0.018463238
14328000.0 0.589295488 -0.018447888
14352500.0 0.589251904 -0.018477008
14377000.0 0.58925248 -0.018499808
14401500.0 0.589257152 -0.01853525
14426000.0 0.589319104 -0.01859982
14450500.0 0.589262016 -0.018613168
14475000.0 0.589252288 -0.018686932
14499500.0 0.589292416 -0.018678444
14524000.0 0.589291392 -0.018706894
14548500.0 0.589239296 -0.018768466
14573000.0 0.58927296 -0.018778076
14597500.0 0.589280576 -0.018796484
14622000.0 0.589214528 -0.018840244
14646500.0 0.589173632 -0.018874536
14671000.0 0.589281472 -0.018914254
14695500.0 0.589199168 -0.018977354
14720000.0 0.589245248 -0.019002432
14744500.0 0.589218688 -0.01906113
14769000.0 0.589324096 -0.019047396
14793500.0 0.589284032 -0.01908956
14818000.0 0.589224128 -0.01915014
14842500.0 0.589223872 -0.019201788
14867000.0 0.589289536 -0.019161224
14891500.0 0.589279616 -0.019223174
14916000.0 0.589270656 -0.019269352
14940500.0 0.589229888 -0.019287382
