! Created with skrf (http://scikit-rf.org).
# Hz S RI R 50.0 
!freq ReS11 ImS11
1000000.0 -0.79023232 -0.000910532
1024500.0 -0.790165056 -0.00075289
1049000.0 -0.790188096 -0.000830933
1073500.0 -0.7901808 -0.000737929
1098000.0 -0.790165312 -0.000510616
1122500.0 -0.790229312 -0.000526234
1147000.0 -0.790153472 -0.000455521
1171500.0 -0.7901776 -0.000410483
1196000.0 -0.790170112 -0.000380311
1220500.0 -0.790060544 -0.000220994
1245000.0 -0.790237952 -0.000206816
1269500.0 -0.79019776 -3.7378e-05
1294000.0 -0.7901776 -0.000139801
1318500.0 -0.790172736 5.8616e-05
1343000.0 -0.79013216 0.000104725
1367500.0 -0.790185344 5.4056e-05
1392000.0 -0.790230144 0.000181382
1416500.0 -0.79022208 0.000225212
1441000.0 -0.790142464 0.000262491
1465500.0 -0.790186176 0.000251893
1490000.0 -0.790178816 0.000360748
1514500.0 -0.790159488 0.000605731
1539000.0 -0.790158144 0.000614109
1563500.0 -0.790182528 0.000626626
1588000.0 -0.790122816 0.00075652
1612500.0 -0.790144832 0.000720831
1637000.0 -0.790170432 0.000776664
1661500.0 -0.790096896 0.000889942
1686000.0 -0.790183424 0.001079378
1710500.0 -0.790058432 0.001053742
1735000.0 -0.790141888 0.001128323
1759500.0 -0.790182208 0.001107472
1784000.0 -0.790190528 0.001173939
1808500.0 -0.790159232 0.001340638
1833000.0 -0.790149312 0.001254844
1857500.0 -0.790061696 0.001434076
1882000.0 -0.790195904 0.00138022
1906500.0 -0.790162048 0.001552895
1931000.0 -0.790131904 0.001440057
1955500.0 -0.790163328 0.001683258
1980000.0 -0.790211904 0.001676355
2004500.0 -0.790175488 0.001747436
2029000.0 -0.790189184 0.001895449
2053500.0 -0.790165248 0.001910717
2078000.0 -0.790172992 0.001818448
2102500.0 -0.790174528 0.001984461
2127000.0 -0.7900624 0.002057772
2151500.0 -0.790169792 0.002150693
2176000.0 -0.790104064 0.002243672
2200500.0 -0.790095424 0.002213691
2225000.0 -0.790264448 0.00231325
2249500.0 -0.79005024 0.002344021
2274000.0 -0.790125312 0.002483791
2298500.0 -0.790117504 0.002467975
2323000.0 -0.790136448 0.002475975
2347500.0 -0.790161984 0.002551782
2372000.0 -0.790167744 0.002695344
2396500.0 -0.790099072 0.002688338
2421000.0 -0.790152 0.002783956
2445500.0 -0.79006496 0.002877697
2470000.0 -0.790029312 0.002923573
2494500.0 -0.790078016 0.003021553
2519000.0 -0.790061632 0.003019329
2543500.0 -0.790058432 0.003080525
2568000.0 -0.790119808 0.00306539
2592500.0 -0.789999424 0.00323803
2617000.0 -0.790148544 0.003361163
2641500.0 -0.790236608 0.003383421
2666000.0 -0.789985984 0.003441626
2690500.0 -0.790061696 0.003483913
2715000.0 -0.790122048 0.003449214
2739500.0 -0.790082048 0.003507177
2764000.0 -0.790073664 0.003625679
2788500.0 -0.79003456 0.003671717
2813000.0 -0.7900768 0.003729459
2837500.0 -0.7900656 0.003812351
2862000.0 -0.7900512 0.003894055
2886500.0 -0.790070336 0.003958468
2911000.0 -0.790047488 0.003885818
2935500.0 -0.7900112 0.004021017
2960000.0 -0.790053696 0.00410461
2984500.0 -0.79008256 0.004088971
3009000.0 -0.79012128 0.004219128
3033500.0 -0.790081536 0.004297652
3058000.0 -0.79004224 0.004271495
3082500.0 -0.790087808 0.004380539
3107000.0 -0.789985792 0.004444749
3131500.0 -0.790104256 0.004532296
3156000.0 -0.79003008 0.004500988
3180500.0 -0.790038144 0.004617089
3205000.0 -0.78992736 0.004668316
3229500.0 -0.790105664 0.004760539
3254000.0 -0.789977856 0.004859017
3278500.0 -0.789897472 0.004955792
3303000.0 -0.789966272 0.004883489
3327500.0 -0.790106624 0.004990755
3352000.0 -0.79007648 0.005145268
3376500.0 -0.790029824 0.005061841
3401000.0 -0.789985344 0.005154476
3425500.0 -0.789980608 0.00521526
3450000.0 -0.790031424 0.00525049
3474500.0 -0.790060032 0.00534256
3499000.0 -0.790063872 0.005306482
3523500.0 -0.789949568 0.005406489
3548000.0 -0.790038208 0.005508627
3572500.0 -0.790051136 0.005533738
3597000.0 -0.789995136 0.005655603
3621500.0 -0.790034944 0.005755103
3646000.0 -0.789998464 0.00577402
3670500.0 -0.790000448 0.00579493
3695000.0 -0.790087232 0.005897289
3719500.0 -0.79005888 0.005831742
3744000.0 -0.79006496 0.006035446
3768500.0 -0.790007872 0.00604125
3793000.0 -0.789978688 0.006069407
3817500.0 -0.789894656 0.006176133
3842000.0 -0.789971456 0.006150304
3866500.0 -0.789996928 0.006298047
3891000.0 -0.789975488 0.006385842
3915500.0 -0.789987648 0.00640231
3940000.0 -0.790005184 0.006494207
3964500.0 -0.789999424 0.006485215
3989000.0 -0.7900784 0.006614247
4013500.0 -0.789924928 0.006644613
4038000.0 -0.790009664 0.006665878
4062500.0 -0.790018048 0.006795984
4087000.0 -0.79002304 0.006687043
4111500.0 -0.789955648 0.006902313
4136000.0 -0.789947584 0.006911745
4160500.0 -0.790002496 0.006971468
4185000.0 -0.790047232 0.007094073
4209500.0 -0.78994528 0.007198316
4234000.0 -0.790008192 0.007120342
4258500.0 -0.789836288 0.007233175
4283000.0 -0.789918016 0.007272147
4307500.0 -0.7900352 0.007365257
4332000.0 -0.789849664 0.007370912
4356500.0 -0.789946816 0.007457551
4381000.0 -0.78995072 0.007550518
4405500.0 -0.789970368 0.007506892
4430000.0 -0.789890176 0.007643375
4454500.0 -0.789928256 0.007670769
4479000.0 -0.789928256 0.007667771
4503500.0 -0.78992224 0.007789177
4528000.0 -0.789959104 0.0077194
4552500.0 -0.78995744 0.007942144
4577000.0 -0.789998912 0.007928483
4601500.0 -0.789813248 0.008023109
4626000.0 -0.789901632 0.00803757
4650500.0 -0.789860288 0.008096683
4675000.0 -0.789961728 0.008226543
4699500.0 -0.789925376 0.008233685
4724000.0 -0.789926976 0.008301241
4748500.0 -0.78989312 0.008366089
4773000.0 -0.78984736 0.008297136
4797500.0 -0.789922816 0.008410978
4822000.0 -0.789932864 0.008485032
4846500.0 -0.78983328 0.008554372
4871000.0 -0.789868992 0.008595917
4895500.0 -0.789816576 0.008783261
4920000.0 -0.789946816 0.008769882
4944500.0 -0.78989152 0.008766619
4969000.0 -0.78991488 0.008846481
4993500.0 -0.789814144 0.008944648
5018000.0 -0.789923072 0.008941012
5042500.0 -0.789918592 0.009047549
5067000.0 -0.789868672 0.009093888
5091500.0 -0.789918784 0.009158868
5116000.0 -0.78989088 0.009283276
5140500.0 -0.789897536 0.009320214
5165000.0 -0.789864832 0.009386669
5189500.0 -0.789919168 0.00935161
5214000.0 -0.789829056 0.009376495
5238500.0 -0.7898592 0.009556427
5263000.0 -0.789827904 0.009512328
5287500.0 -0.789829632 0.009631069
5312000.0 -0.789814144 0.009656204
5336500.0 -0.78981728 0.009696096
5361000.0 -0.7897808 0.009727266
5385500.0 -0.789872576 0.009860621
5410000.0 -0.789815872 0.009906583
5434500.0 -0.789854144 0.010024933
5459000.0 -0.789820096 0.009997641
5483500.0 -0.789901824 0.010089921
5508000.0 -0.789811776 0.010155668
5532500.0 -0.78974784 0.01021153
5557000.0 -0.789754304 0.010323078
5581500.0 -0.789808192 0.010328863
5606000.0 -0.789759872 0.010409451
5630500.0 -0.789738752 0.010465106
5655000.0 -0.78978432 0.010525955
5679500.0 -0.789744192 0.010507376
5704000.0 -0.789864768 0.010730447
5728500.0 -0.78975072 0.01068891
5753000.0 -0.789795648 0.01072733
5777500.0 -0.789847616 0.010739302
5802000.0 -0.78973952 0.01090897
5826500.0 -0.78982304 0.01088168
5851000.0 -0.789813696 0.010863986
5875500.0 -0.789699968 0.010962366
5900000.0 -0.789842112 0.011066094
5924500.0 -0.789848832 0.011046747
5949000.0 -0.789847104 0.011233287
5973500.0 -0.789795904 0.011226991
5998000.0 -0.789723392 0.011329994
6022500.0 -0.789830784 0.011297029
6047000.0 -0.789658944 0.01147114
6071500.0 -0.789771584 0.011517744
6096000.0 -0.789827712 0.011512835
6120500.0 -0.789710336 0.011587088
6145000.0 -0.789881728 0.011774279
6169500.0 -0.789769216 0.011752914
6194000.0 -0.789799552 0.011738257
6218500.0 -0.789742144 0.011796497
6243000.0 -0.789730368 0.011856471
6267500.0 -0.789693248 0.011973607
6292000.0 -0.789683456 0.011958718
6316500.0 -0.789669312 0.012126296
6341000.0 -0.78977248 0.012177201
6365500.0 -0.789593728 0.012156803
6390000.0 -0.78969088 0.012201073
6414500.0 -0.789740736 0.012250426
6439000.0 -0.789722816 0.012410538
6463500.0 -0.789584064 0.012419957
6488000.0 -0.7896912 0.012459208
6512500.0 -0.789704064 0.012422716
6537000.0 -0.78965952 0.01253828
6561500.0 -0.789698048 0.012562689
6586000.0 -0.789662784 0.012705184
6610500.0 -0.789626816 0.01272925
6635000.0 -0.789672512 0.012753639
6659500.0 -0.789684864 0.012862361
6684000.0 -0.789694464 0.012941062
6708500.0 -0.789730176 0.012949503
6733000.0 -0.789700608 0.013065885
6757500.0 -0.789664384 0.013069429
6782000.0 -0.78974432 0.013128053
6806500.0 -0.789539648 0.0132727
6831000.0 -0.789661504 0.013247388
6855500.0 -0.78961568 0.01325176
6880000.0 -0.78962368 0.013417491
6904500.0 -0.78976448 0.01338783
6929000.0 -0.789666816 0.013462041
6953500.0 -0.789624064 0.013467451
6978000.0 -0.789598912 0.013510543
7002500.0 -0.789624576 0.013650237
7027000.0 -0.789678784 0.013756293
7051500.0 -0.789665728 0.013730986
7076000.0 -0.789595968 0.013790209
7100500.0 -0.789638912 0.013920673
7125000.0 -0.789686272 0.013985721
7149500.0 -0.789633856 0.013935167
7174000.0 -0.789641408 0.014000391
7198500.0 -0.78964512 0.013989578
7223000.0 -0.789632512 0.014055806
7247500.0 -0.78956384 0.014132694
7272000.0 -0.78963392 0.014298765
7296500.0 -0.78959072 0.014250786
7321000.0 -0.78950784 0.01428366
7345500.0 -0.789490432 0.014428154
7370000.0 -0.789579776 0.014641597
7394500.0 -0.789488576 0.014464312
7419000.0 -0.789530688 0.0144923
7443500.0 -0.789584 0.014626492
7468000.0 -0.789582464 0.014665217
7492500.0 -0.789579456 0.014714278
7517000.0 -0.789544768 0.014902571
7541500.0 -0.789552256 0.014938721
7566000.0 -0.78950432 0.014846535
7590500.0 -0.78947872 0.014853675
7615000.0 -0.78965888 0.015103066
7639500.0 -0.789529472 0.015017536
7664000.0 -0.789478528 0.015129057
7688500.0 -0.789532736 0.015239334
7713000.0 -0.789611328 0.015269169
7737500.0 -0.789610176 0.015305266
7762000.0 -0.78961664 0.015426117
7786500.0 -0.78950848 0.015510259
7811000.0 -0.78950976 0.015513672
7835500.0 -0.789463936 0.015544405
7860000.0 -0.789515136 0.015631345
7884500.0 -0.789441856 0.015676536
7909000.0 -0.789549632 0.015648669
7933500.0 -0.789472256 0.015725367
7958000.0 -0.78957504 0.015836094
7982500.0 -0.789431232 0.01593848
8007000.0 -0.78953856 0.015868117
8031500.0 -0.789632512 0.01595014
8056000.0 -0.789515136 0.016029483
8080500.0 -0.789481536 0.016144241
8105000.0 -0.789509248 0.016089777
8129500.0 -0.789492864 0.016188184
8154000.0 -0.789452032 0.01632417
8178500.0 -0.789566784 0.016261172
8203000.0 -0.789478848 0.01626438
8227500.0 -0.789431616 0.016402919
8252000.0 -0.789556928 0.016550232
8276500.0 -0.789388352 0.016450452
8301000.0 -0.789530304 0.016642254
8325500.0 -0.78947104 0.016725868
8350000.0 -0.789498688 0.016712644
8374500.0 -0.789431296 0.016791216
8399000.0 -0.789506944 0.016821714
8423500.0 -0.789475904 0.016903676
8448000.0 -0.789524992 0.017038656
8472500.0 -0.789474752 0.017011682
8497000.0 -0.789423104 0.01713117
8521500.0 -0.789435776 0.01705101
8546000.0 -0.789444032 0.017109192
8570500.0 -0.789477184 0.01719459
8595000.0 -0.789470144 0.017353708
8619500.0 -0.78939584 0.017312856
8644000.0 -0.78938208 0.017303042
8668500.0 -0.78951232 0.017346468
8693000.0 -0.789379968 0.017462968
8717500.0 -0.789353344 0.017589686
8742000.0 -0.789397568 0.017660378
8766500.0 -0.789419776 0.017753606
8791000.0 -0.789328832 0.017730838
8815500.0 -0.789433216 0.017837522
8840000.0 -0.789433856 0.017876128
8864500.0 -0.789468672 0.01787967
8889000.0 -0.789439936 0.017980032
8913500.0 -0.78940032 0.018076498
8938000.0 -0.789324416 0.018123976
8962500.0 -0.789256384 0.018107878
8987000.0 -0.789348032 0.018120442
9011500.0 -0.789366848 0.018157068
9036000.0 -0.789374592 0.018352428
9060500.0 -0.789420864 0.018371442
9085000.0 -0.789340288 0.018495542
9109500.0 -0.789388544 0.018480422
9134000.0 -0.78938336 0.018529208
9158500.0 -0.789356032 0.01859699
9183000.0 -0.789377984 0.01868923
9207500.0 -0.789416384 0.018678308
9232000.0 -0.789366528 0.018759516
9256500.0 -0.789439616 0.018771604
9281000.0 -0.789309632 0.0189369
9305500.0 -0.78944416 0.019013356
9330000.0 -0.789401792 0.01892004
9354500.0 -0.789272768 0.019078066
9379000.0 -0.789318528 0.019169274
9403500.0 -0.789190016 0.019100388
9428000.0 -0.789346176 0.019257544
9452500.0 -0.789339904 0.01926452
9477000.0 -0.789289088 0.019363268
9501500.0 -0.7893296 0.019376286
9526000.0 -0.789315584 0.019334802
9550500.0 -0.789242944 0.019478068
9575000.0 -0.789308928 0.019435144
9599500.0 -0.789300224 0.019626216
9624000.0 -0.789369344 0.01959351
9648500.0 -0.789195456 0.019520852
9673000.0 -0.789349376 0.019795674
9697500.0 -0.789375424 0.019823958
9722000.0 -0.78929984 0.019890754
9746500.0 -0.789221184 0.019894242
9771000.0 -0.789254976 0.019936842
9795500.0 -0.789239872 0.02003069
9820000.0 -0.78926752 0.02005139
9844500.0 -0.789180672 0.020089434
9869000.0 -0.789319744 0.020187644
9893500.0 -0.789318144 0.020187484
9918000.0 -0.789292864 0.020332676
9942500.0 -0.789292032 0.020376818
9967000.0 -0.78933184 0.020447106
9991500.0 -0.789263872 0.020411122
10016000.0 -0.789228672 0.020496062
10040500.0 -0.789215424 0.020613848
10065000.0 -0.789220096 0.020590918
10089500.0 -0.789201856 0.020710764
10114000.0 -0.789274944 0.02074717
10138500.0 -0.78918752 0.020767918
10163000.0 -0.789232064 0.020862038
10187500.0 -0.789162432 0.021023452
10212000.0 -0.789165952 0.020901626
10236500.0 -0.789254272 0.021036578
10261000.0 -0.789280448 0.021068568
10285500.0 -0.789275392 0.021102708
10310000.0 -0.78919104 0.021254642
10334500.0 -0.789196928 0.021215018
10359000.0 -0.789218176 0.021212762
10383500.0 -0.789312896 0.021318326
10408000.0 -0.789228992 0.021410986
10432500.0 -0.789175488 0.021444368
10457000.0 -0.789264512 0.021409364
10481500.0 -0.789258944 0.021509316
10506000.0 -0.789193728 0.021622798
10530500.0 -0.789222336 0.021640754
10555000.0 -0.789255808 0.02169827
10579500.0 -0.78913024 0.021770738
10604000.0 -0.789151552 0.02187526
10628500.0 -0.789152128 0.021896828
10653000.0 -0.789171904 0.021957958
10677500.0 -0.789220992 0.022045084
10702000.0 -0.789215744 0.022001806
10726500.0 -0.78914848 0.02215373
10751000.0 -0.78924672 0.02216811
10775500.0 -0.78911456 0.022260396
10800000.0 -0.789160448 0.022178626
10824500.0 -0.789184512 0.022399032
10849000.0 -0.78911424 0.022375746
10873500.0 -0.789230656 0.022475164
10898000.0 -0.789219904 0.02255476
10922500.0 -0.789127552 0.02261632
10947000.0 -0.78917504 0.022679528
10971500.0 -0.789120768 0.022768918
10996000.0 -0.789208 0.022730812
11020500.0 -0.789168448 0.022669348
11045000.0 -0.789081152 0.02279145
11069500.0 -0.789056832 0.022908394
11094000.0 -0.7892272 0.02282036
11118500.0 -0.789160256 0.023057976
11143000.0 -0.789117952 0.023075442
11167500.0 -0.789138048 0.02311958
11192000.0 -0.78920032 0.023239506
11216500.0 -0.789156864 0.02323388
11241000.0 -0.789031488 0.023326524
11265500.0 -0.789182016 0.023353858
11290000.0 -0.789185088 0.02342266
11314500.0 -0.789133568 0.023477098
11339000.0 -0.789131008 0.023431356
11363500.0 -0.789139776 0.023569316
11388000.0 -0.789115008 0.02357381
11412500.0 -0.7890992 0.023612266
11437000.0 -0.789025216 0.023703836
11461500.0 -0.789054592 0.0238453
11486000.0 -0.789100992 0.023807838
11510500.0 -0.7890272 0.023898664
11535000.0 -0.78918464 0.023905988
11559500.0 -0.7890992 0.024024894
11584000.0 -0.789194752 0.024154426
11608500.0 -0.788997952 0.024139928
11633000.0 -0.789083456 0.024223788
11657500.0 -0.789162816 0.024246398
11682000.0 -0.78905952 0.024238806
11706500.0 -0.789137792 0.02428289
11731000.0 -0.789056 0.024403926
11755500.0 -0.789124928 0.024473126
11780000.0 -0.789059392 0.024520786
11804500.0 -0.789114048 0.024505358
11829000.0 -0.789099392 0.024659376
11853500.0 -0.789097728 0.024718784
11878000.0 -0.7889952 0.024812074
11902500.0 -0.78904576 0.02487595
11927000.0 -0.78910464 0.02484207
11951500.0 -0.789047872 0.024925814
11976000.0 -0.789109632 0.024907382
12000500.0 -0.789042752 0.025120822
12025000.0 -0.789154688 0.025091324
12049500.0 -0.789108032 0.025144806
12074000.0 -0.788915008 0.025184268
12098500.0 -0.78900352 0.025275066
12123000.0 -0.788992512 0.025333418
12147500.0 -0.788992064 0.025342868
12172000.0 -0.788989824 0.025435098
12196500.0 -0.788994752 0.02546687
12221000.0 -0.788993792 0.025466068
12245500.0 -0.788983808 0.0256243
12270000.0 -0.789013056 0.025617756
12294500.0 -0.788961728 0.025694458
12319000.0 -0.788988352 0.025773328
12343500.0 -0.788999424 0.025814808
12368000.0 -0.788912896 0.025833876
12392500.0 -0.788929728 0.025808244
12417000.0 -0.789014528 0.025956064
12441500.0 -0.78892928 0.025948552
12466000.0 -0.789035584 0.026055322
12490500.0 -0.788946688 0.026122608
12515000.0 -0.78889824 0.026321478
12539500.0 -0.788935168 0.026167438
12564000.0 -0.788977088 0.026314192
12588500.0 -0.788977088 0.026357514
12613000.0 -0.788920768 0.02645519
12637500.0 -0.788907968 0.026472512
12662000.0 -0.788943808 0.02649285
12686500.0 -0.788969408 0.026608444
12711000.0 -0.788927104 0.026671466
12735500.0 -0.788970752 0.026681234
12760000.0 -0.78900192 0.02678072
12784500.0 -0.788945408 0.026863532
12809000.0 -0.78887424 0.026885922
12833500.0 -0.788979264 0.026882552
12858000.0 -0.78879872 0.026996964
12882500.0 -0.788887872 0.027104404
12907000.0 -0.788748224 0.027040366
12931500.0 -0.788941056 0.0271574
12956000.0 -0.78887744 0.02726928
12980500.0 -0.7888912 0.027256516
13005000.0 -0.788872704 0.027251644
13029500.0 -0.788926848 0.027400922
13054000.0 -0.788879936 0.027529032
13078500.0 -0.788881216 0.027495508
13103000.0 -0.788827712 0.027563734
13127500.0 -0.788841216 0.027545014
13152000.0 -0.788867072 0.027651886
13176500.0 -0.7888352 0.027681648
13201000.0 -0.788720192 0.027773482
13225500.0 -0.788869376 0.027834862
13250000.0 -0.788819392 0.027825824
13274500.0 -0.788792768 0.027914334
13299000.0 -0.788804672 0.028020534
13323500.0 -0.788781888 0.028001442
13348000.0 -0.78880704 0.028147558
13372500.0 -0.788723712 0.02816949
13397000.0 -0.78880416 0.028161756
13421500.0 -0.788865024 0.028306404
13446000.0 -0.78885184 0.028257606
13470500.0 -0.788844096 0.028404484
13495000.0 -0.78884032 0.02830389
13519500.0 -0.788784512 0.028470658
13544000.0 -0.788758912 0.028521766
13568500.0 -0.78879264 0.028541676
13593000.0 -0.788894208 0.028679274
13617500.0 -0.788791488 0.028728842
13642000.0 -0.788813376 0.028755658
13666500.0 -0.788735744 0.028795524
13691000.0 -0.788716992 0.028926102
13715500.0 -0.788789184 0.028895608
13740000.0 -0.78879232 0.029049694
13764500.0 -0.788721088 0.029043214
13789000.0 -0.788773184 0.029116904
13813500.0 -0.788801792 0.029229102
13838000.0 -0.788727552 0.02915106
13862500.0 -0.788750912 0.029281126
13887000.0 -0.78875552 0.029375074
13911500.0 -0.7887264 0.029401544
13936000.0 -0.78878368 0.02953451
13960500.0 -0.788733568 0.02959732
13985000.0 -0.788792576 0.029461294
14009500.0 -0.788782208 0.02957933
14034000.0 -0.78876352 0.029791168
14058500.0 -0.788719232 0.029740282
14083000.0 -0.788718272 0.029820854
14107500.0 -0.788687488 0.029856748
14132000.0 -0.788644416 0.02996497
14156500.0 -0.7887536 0.029958304
14181000.0 -0.78874112 0.030006512
14205500.0 -0.78870912 0.030000794
14230000.0 -0.7887472 0.030122776
14254500.0 -0.788736256 0.030145086
14279000.0 -0.788700288 0.030337816
14303500.0 -0.788641792 0.030309708
14328000.0 -0.788626112 0.0304147
14352500.0 -0.788690432 0.030337294
14377000.0 -0.788632064 0.03037676
14401500.0 -0.788741248 0.030465556
14426000.0 -0.78872736 0.03053565
14450500.0 -0.78863616 0.03060704
14475000.0 -0.788695232 0.030683204
14499500.0 -0.788630336 0.030691694
14524000.0 -0.788661184 0.030809892
14548500.0 -0.788656832 0.030902778
14573000.0 -0.788660352 0.030916988
14597500.0 -0.788682176 0.03101409
14622000.0 -0.78858304 0.030969556
14646500.0 -0.788604992 0.031082348
14671000.0 -0.78869632 0.03110785
14695500.0 -0.78866304 0.031160892
14720000.0 -0.78853984 0.031232852
14744500.0 -0.788584192 0.031296086
14769000.0 -0.788752384 0.031410378
14793500.0 -0.788692096 0.031465158
14818000.0 -0.788527168 0.031517462
14842500.0 -0.78864096 0.031533126
14867000.0 -0.788621184 0.031565082
14891500.0 -0.788622784 0.031658684
14916000.0 -0.788641472 0.031713426
14940500.0 -0.7886048 0.031779
