! Created with skrf (http://scikit-rf.org).
# Hz S RI R 50.0 
!freq ReS11 ImS11
1000000.0 -0.001317643 -2.258e-06
1024512.0 -0.001317645 8.265e-06
1049024.0 -0.001326507 -1.513e-06
1073536.0 -0.001315912 7.413e-06
1098048.0 -0.001314625 5.329e-06
1122560.0 -0.001329368 -1.2307e-05
1147072.0 -0.001327061 -1.3737e-05
1171584.0 -0.001335412 5.174e-06
1196096.0 -0.001331934 1.658e-06
1220608.0 -0.001325857 -5.609e-06
1245120.0 -0.001320416 -2.4643e-05
1269632.0 -0.001334464 -1.3927e-05
1294144.0 -0.00134025 1.201e-05
1318656.0 -0.001317725 -6.016e-06
1343168.0 -0.001335181 -4.035e-06
1367680.0 -0.00130997 -1.911e-05
1392192.0 -0.00134399 -1.7354e-05
1416704.0 -0.001317455 -2.402e-06
1441216.0 -0.001319413 -4.463e-06
1465728.0 -0.001337307 -1.6902e-05
1490240.0 -0.001306866 8.697e-06
1514752.0 -0.001329173 -1.6719e-05
1539264.0 -0.001308555 1.73e-07
1563776.0 -0.00131433 -3.1693e-05
1588288.0 -0.001318005 -7.226e-06
1612800.0 -0.001331218 -4.4032e-05
1637312.0 -0.001315856 6.33e-06
1661824.0 -0.001308926 -1.5161e-05
1686336.0 -0.00133124 2.355e-06
1710848.0 -0.001304833 -1.0619e-05
1735360.0 -0.0013341 -2.9032e-05
1759872.0 -0.00131481 -1.6082e-05
1784384.0 -0.001325903 -1.5968e-05
1808896.0 -0.001308823 -1.6166e-05
1833408.0 -0.001307817 -1.2963e-05
1857920.0 -0.001334249 -8.98e-06
1882432.0 -0.001327579 -5.653e-06
1906944.0 -0.001323653 -9.157e-06
1931456.0 -0.001317828 2.035e-06
1955968.0 -0.001333328 -1.9902e-05
1980480.0 -0.001315997 -5.1e-07
2004992.0 -0.001332408 -2.5878e-05
2029504.0 -0.001316734 -3.5347e-05
2054016.0 -0.001317777 -2.944e-05
2078528.0 -0.001327214 -1.1522e-05
2103040.0 -0.001310515 -2.646e-06
2127552.0 -0.00130687 -2.929e-05
2152064.0 -0.001334259 -3.266e-05
2176576.0 -0.001311252 -1.5759e-05
2201088.0 -0.0013264 -1.5168e-05
2225600.0 -0.001331247 -2.7172e-05
2250112.0 -0.001322007 -2.3191e-05
2274624.0 -0.001321667 -2.2087e-05
2299136.0 -0.00132896 -1.5982e-05
2323648.0 -0.001331412 -2.7018e-05
2348160.0 -0.001315335 -2.3183e-05
2372672.0 -0.001318293 -1.1763e-05
2397184.0 -0.001312527 -3.4953e-05
2421696.0 -0.001323675 -2.1323e-05
2446208.0 -0.001312164 -2.2321e-05
2470720.0 -0.001327631 -4.7084e-05
2495232.0 -0.001344961 -4.544e-06
2519744.0 -0.001314944 -2.7875e-05
2544256.0 -0.001325259 -1.3502e-05
2568768.0 -0.001321755 -3.3115e-05
2593280.0 -0.001340818 -1.2766e-05
2617792.0 -0.001309242 -2.1867e-05
2642304.0 -0.001335825 -3.9456e-05
2666816.0 -0.001320787 -9.387e-06
2691328.0 -0.001326809 -4.1157e-05
2715840.0 -0.001319606 -2.2574e-05
2740352.0 -0.001314561 -3.5278e-05
2764864.0 -0.001327315 -3.0892e-05
2789376.0 -0.001307822 -1.7855e-05
2813888.0 -0.001311653 -3.9187e-05
2838400.0 -0.001306412 -1.4849e-05
2862912.0 -0.001320595 -3.1246e-05
2887424.0 -0.00132243 -3.0829e-05
2911936.0 -0.001306007 -1.3433e-05
2936448.0 -0.001329726 -3.5666e-05
2960960.0 -0.00130322 -1.5515e-05
2985472.0 -0.00132727 -3.4469e-05
3009984.0 -0.00132735 -2.0935e-05
3034496.0 -0.001291588 -2.0232e-05
3059008.0 -0.001317827 -4.5547e-05
3083520.0 -0.001325241 -2.5633e-05
3108032.0 -0.001325363 -2.4375e-05
3132544.0 -0.00132804 -3.6511e-05
3157056.0 -0.001323473 -2.6672e-05
3181568.0 -0.001318483 -4.9878e-05
3206080.0 -0.001335198 -2.3285e-05
3230592.0 -0.001325781 -2.9565e-05
3255104.0 -0.001311569 -2.0053e-05
3279616.0 -0.001309788 -3.2399e-05
3304128.0 -0.00131333 -3.8521e-05
3328640.0 -0.001328315 -2.2839e-05
3353152.0 -0.001327627 -2.9626e-05
3377664.0 -0.001326147 -2.0683e-05
3402176.0 -0.001301896 -4.9157e-05
3426688.0 -0.001324695 -2.1379e-05
3451200.0 -0.001320562 -3.1735e-05
3475712.0 -0.001320692 -2.523e-05
3500224.0 -0.001317315 -4.7954e-05
3524736.0 -0.001323015 -2.9688e-05
3549248.0 -0.001310582 -2.4715e-05
3573760.0 -0.001327848 -3.032e-05
3598272.0 -0.001320292 -3.4948e-05
3622784.0 -0.001328046 -5.4144e-05
3647296.0 -0.001308977 -4.0371e-05
3671808.0 -0.001319427 -5.4457e-05
3696320.0 -0.001313591 -3.4247e-05
3720832.0 -0.00132533 -4.9755e-05
3745344.0 -0.001338224 -3.7696e-05
3769856.0 -0.001318855 -2.8228e-05
3794368.0 -0.001319225 -4.5864e-05
3818880.0 -0.001331618 -4.0799e-05
3843392.0 -0.001310249 -5.5535e-05
3867904.0 -0.001341382 -4.857e-05
3892416.0 -0.00131722 -4.321e-05
3916928.0 -0.001329782 -4.1694e-05
3941440.0 -0.001295921 -5.7791e-05
3965952.0 -0.001336842 -3.4389e-05
3990464.0 -0.001322791 -3.9364e-05
4014976.0 -0.001333376 -4.1823e-05
4039488.0 -0.001316501 -4.0906e-05
4064000.0 -0.001324992 -4.1512e-05
4088512.0 -0.001312126 -4.7507e-05
4113024.0 -0.00131911 -5.1529e-05
4137536.0 -0.001319287 -4.7426e-05
4162048.0 -0.001320724 -5.9905e-05
4186560.0 -0.001304678 -2.873e-05
4211072.0 -0.001310522 -4.4838e-05
4235584.0 -0.001330881 -4.3522e-05
4260096.0 -0.001323996 -4.2523e-05
4284608.0 -0.001321259 -4.7299e-05
4309120.0 -0.001318763 -5.5455e-05
4333632.0 -0.001324732 -6.3899e-05
4358144.0 -0.001323818 -4.2366e-05
4382656.0 -0.001315812 -6.0064e-05
4407168.0 -0.001349321 -4.9403e-05
4431680.0 -0.001328697 -3.9579e-05
4456192.0 -0.001318551 -5.2768e-05
4480704.0 -0.001327489 -4.9346e-05
4505216.0 -0.001313658 -6.3054e-05
4529728.0 -0.001334149 -3.9945e-05
4554240.0 -0.001326679 -3.6327e-05
4578752.0 -0.001321523 -5.5924e-05
4603264.0 -0.001340648 -4.9074e-05
4627776.0 -0.001320059 -4.4081e-05
4652288.0 -0.001332907 -5.9164e-05
4676800.0 -0.00132254 -3.6364e-05
4701312.0 -0.001318093 -7.9883e-05
4725824.0 -0.001325364 -4.3138e-05
4750336.0 -0.001310371 -4.7634e-05
4774848.0 -0.001335166 -5.2924e-05
4799360.0 -0.001322996 -6.9095e-05
4823872.0 -0.001328904 -5.2992e-05
4848384.0 -0.00133844 -3.9845e-05
4872896.0 -0.001324302 -4.1818e-05
4897408.0 -0.0013549 -5.4168e-05
4921920.0 -0.00131748 -3.6078e-05
4946432.0 -0.001314035 -6.7977e-05
4970944.0 -0.001327628 -6.0617e-05
4995456.0 -0.001330848 -6.1185e-05
5019968.0 -0.001325979 -6.8139e-05
5044480.0 -0.001323274 -4.7038e-05
5068992.0 -0.001321796 -6.6324e-05
5093504.0 -0.001342989 -4.7666e-05
5118016.0 -0.001318471 -6.1652e-05
5142528.0 -0.001328159 -5.0721e-05
5167040.0 -0.00133279 -5.6189e-05
5191552.0 -0.001316792 -5.9224e-05
5216064.0 -0.001327043 -5.259e-05
5240576.0 -0.001308903 -6.3596e-05
5265088.0 -0.001343299 -5.7395e-05
5289600.0 -0.001322214 -3.8752e-05
5314112.0 -0.001319408 -8.8569e-05
5338624.0 -0.001340392 -5.4733e-05
5363136.0 -0.001314766 -5.2111e-05
5387648.0 -0.001340283 -5.5618e-05
5412160.0 -0.001310941 -5.4816e-05
5436672.0 -0.001326601 -7.5733e-05
5461184.0 -0.001337691 -4.7439e-05
5485696.0 -0.001333655 -6.184e-05
5510208.0 -0.001323241 -4.7766e-05
5534720.0 -0.001314902 -6.9948e-05
5559232.0 -0.001318719 -5.9531e-05
5583744.0 -0.001320283 -8.1126e-05
5608256.0 -0.001321352 -5.0831e-05
5632768.0 -0.001320323 -5.4462e-05
5657280.0 -0.001316161 -5.9835e-05
5681792.0 -0.001327058 -5.3234e-05
5706304.0 -0.001321 -4.652e-05
5730816.0 -0.001339841 -4.7329e-05
5755328.0 -0.001299205 -6.3327e-05
5779840.0 -0.001340968 -7.1558e-05
5804352.0 -0.001323468 -4.538e-05
5828864.0 -0.001310855 -7.9925e-05
5853376.0 -0.001321283 -4.7131e-05
5877888.0 -0.001319449 -6.2834e-05
5902400.0 -0.00133211 -6.239e-05
5926912.0 -0.001310335 -5.7575e-05
5951424.0 -0.001344156 -7.0285e-05
5975936.0 -0.00131846 -4.3602e-05
6000448.0 -0.001317516 -8.8268e-05
6024960.0 -0.001334042 -4.6075e-05
6049472.0 -0.001319776 -6.8283e-05
6073984.0 -0.001322896 -7.0287e-05
6098496.0 -0.001332116 -6.279e-05
6123008.0 -0.001336259 -7.91e-05
6147520.0 -0.001344983 -6.9498e-05
6172032.0 -0.001320423 -5.8552e-05
6196544.0 -0.001322418 -7.9149e-05
6221056.0 -0.001325403 -5.3059e-05
6245568.0 -0.001320028 -8.4125e-05
6270080.0 -0.001339679 -7.1826e-05
6294592.0 -0.001317609 -5.9576e-05
6319104.0 -0.001350242 -8.8128e-05
6343616.0 -0.001327637 -6.3852e-05
6368128.0 -0.001318268 -6.9171e-05
6392640.0 -0.001350874 -7.5465e-05
6417152.0 -0.001326896 -6.1112e-05
6441664.0 -0.001337498 -9.7318e-05
6466176.0 -0.001327538 -6.8802e-05
6490688.0 -0.001315263 -8.5762e-05
6515200.0 -0.001352897 -7.2987e-05
6539712.0 -0.001309963 -9.8191e-05
6564224.0 -0.001368519 -7.2383e-05
6588736.0 -0.001337188 -7.3278e-05
6613248.0 -0.00133841 -9.1726e-05
6637760.0 -0.001344623 -4.9323e-05
6662272.0 -0.001325012 -8.3732e-05
6686784.0 -0.001349154 -6.5692e-05
6711296.0 -0.00134076 -8.578e-05
6735808.0 -0.001348087 -7.9659e-05
6760320.0 -0.001334494 -6.1966e-05
6784832.0 -0.001338058 -7.2846e-05
6809344.0 -0.001328802 -6.7602e-05
6833856.0 -0.001325475 -7.1001e-05
6858368.0 -0.001339717 -5.47e-05
6882880.0 -0.001300986 -6.0854e-05
6907392.0 -0.001331289 -6.6399e-05
6931904.0 -0.001310423 -5.9004e-05
6956416.0 -0.001305687 -5.5296e-05
6980928.0 -0.001326509 -5.3277e-05
7005440.0 -0.001304185 -7.2506e-05
7029952.0 -0.001330207 -7.4777e-05
7054464.0 -0.001318077 -5.032e-05
7078976.0 -0.001311731 -9.0625e-05
7103488.0 -0.001306646 -5.7843e-05
7128000.0 -0.00131358 -7.7463e-05
7152512.0 -0.00130325 -7.7972e-05
7177024.0 -0.001309249 -8.6669e-05
7201536.0 -0.00133193 -7.9396e-05
7226048.0 -0.00130398 -7.6754e-05
7250560.0 -0.001321451 -8.419e-05
7275072.0 -0.001321116 -4.9072e-05
7299584.0 -0.001310791 -9.0589e-05
7324096.0 -0.001319766 -8.32e-05
7348608.0 -0.001301467 -8.9224e-05
7373120.0 -0.001313817 -7.6428e-05
7397632.0 -0.001296028 -9.3553e-05
7422144.0 -0.001332555 -7.1342e-05
7446656.0 -0.001316839 -8.86e-05
7471168.0 -0.001306516 -9.0083e-05
7495680.0 -0.001295763 -9.2446e-05
7520192.0 -0.001317434 -0.000103552
7544704.0 -0.001327823 -8.0783e-05
7569216.0 -0.001303804 -9.1491e-05
7593728.0 -0.001323612 -8.6737e-05
7618240.0 -0.001298161 -7.8645e-05
7642752.0 -0.001332144 -0.000107352
7667264.0 -0.001314875 -7.3423e-05
7691776.0 -0.001325668 -0.000100536
7716288.0 -0.00131101 -8.5484e-05
7740800.0 -0.001309674 -9.5384e-05
7765312.0 -0.001328453 -8.0759e-05
7789824.0 -0.001305423 -9.1821e-05
7814336.0 -0.001333683 -9.1802e-05
7838848.0 -0.001292356 -0.000100425
7863360.0 -0.00131257 -0.000101507
7887872.0 -0.001312922 -7.3093e-05
7912384.0 -0.001317087 -0.000105484
7936896.0 -0.001317988 -0.000100848
7961408.0 -0.001294982 -9.0145e-05
7985920.0 -0.001319595 -8.2206e-05
8010432.0 -0.001303928 -8.8074e-05
8034944.0 -0.00131434 -0.000107206
8059456.0 -0.001331106 -8.7608e-05
8083968.0 -0.001308938 -0.000104756
8108480.0 -0.001310702 -9.2225e-05
8132992.0 -0.001293485 -0.00010188
8157504.0 -0.001324012 -0.000101251
8182016.0 -0.001318649 -8.5458e-05
8206528.0 -0.001297913 -8.5984e-05
8231040.0 -0.001335161 -8.6263e-05
8255552.0 -0.0013123 -8.1786e-05
8280064.0 -0.001321279 -0.000113118
8304576.0 -0.001314645 -7.9985e-05
8329088.0 -0.001316192 -0.000110483
8353600.0 -0.001329073 -0.000108894
8378112.0 -0.00130916 -0.000102776
8402624.0 -0.001337232 -0.000107187
8427136.0 -0.001310763 -9.025e-05
8451648.0 -0.001330816 -9.8543e-05
8476160.0 -0.001317478 -9.8023e-05
8500672.0 -0.001308349 -9.8127e-05
8525184.0 -0.001329042 -0.000105283
8549696.0 -0.001310163 -8.7632e-05
8574208.0 -0.0013225 -0.00010875
8598720.0 -0.00130911 -8.5874e-05
8623232.0 -0.001315159 -0.000108902
8647744.0 -0.001317333 -0.000103732
8672256.0 -0.001291138 -0.000112361
8696768.0 -0.001331464 -0.000107156
8721280.0 -0.001302829 -0.000101895
8745792.0 -0.001307098 -0.000117927
8770304.0 -0.001326977 -0.000118957
8794816.0 -0.001305367 -8.5738e-05
8819328.0 -0.001315439 -0.000118927
8843840.0 -0.001325344 -8.8231e-05
8868352.0 -0.001316801 -0.000114501
8892864.0 -0.00132234 -0.000111832
8917376.0 -0.00131773 -9.9728e-05
8941888.0 -0.001335914 -0.000105944
8966400.0 -0.001310506 -0.000104505
8990912.0 -0.001317115 -0.000115309
9015424.0 -0.001316583 -9.9272e-05
9039936.0 -0.001310629 -0.000114205
9064448.0 -0.001330879 -0.000109277
9088960.0 -0.001311371 -0.000110029
9113472.0 -0.001327115 -0.000116406
9137984.0 -0.001322574 -0.000106939
9162496.0 -0.001304312 -0.000107398
9187008.0 -0.001331275 -0.00012176
9211520.0 -0.001322775 -0.000103406
9236032.0 -0.001327324 -0.000121608
9260544.0 -0.001297944 -0.000113987
9285056.0 -0.001307585 -0.000119888
9309568.0 -0.001317902 -0.000126042
9334080.0 -0.001315197 -0.00011318
9358592.0 -0.001331736 -0.000126962
9383104.0 -0.001335778 -0.000107879
9407616.0 -0.001307617 -0.000115615
9432128.0 -0.001336827 -0.000123456
9456640.0 -0.00130723 -9.6073e-05
9481152.0 -0.001336219 -0.00011453
9505664.0 -0.001315969 -9.7777e-05
9530176.0 -0.001310603 -0.000130499
9554688.0 -0.001319271 -0.000112294
9579200.0 -0.001313031 -0.000117517
9603712.0 -0.001323322 -0.000121549
9628224.0 -0.001312797 -0.00011035
9652736.0 -0.001300831 -0.000131309
9677248.0 -0.001331934 -0.000111733
9701760.0 -0.001313565 -0.000119173
9726272.0 -0.001323893 -0.000130488
9750784.0 -0.001304464 -0.000102788
9775296.0 -0.00132555 -0.000138396
9799808.0 -0.00132387 -0.000120342
9824320.0 -0.001303098 -0.000105656
9848832.0 -0.0013334 -0.000121494
9873344.0 -0.001301044 -0.000103622
9897856.0 -0.001316595 -0.000145876
9922368.0 -0.001337094 -0.000119331
9946880.0 -0.001317874 -0.000113768
9971392.0 -0.001304995 -0.000123586
9995904.0 -0.001322714 -0.000122464
10020416.0 -0.001293817 -0.000128429
10044928.0 -0.001332976 -0.000118885
10069440.0 -0.001318807 -0.000119446
10093952.0 -0.001319669 -0.000121673
10118464.0 -0.00132867 -0.000122369
10142976.0 -0.001312364 -0.000144882
10167488.0 -0.001334354 -0.000135921
10192000.0 -0.00131012 -0.000126275
10216512.0 -0.001328207 -0.000149395
10241024.0 -0.001318078 -0.000104395
10265536.0 -0.001305099 -0.000143224
10290048.0 -0.001336896 -0.000125503
10314560.0 -0.001302582 -0.000127235
10339072.0 -0.001326083 -0.000135362
10363584.0 -0.001323757 -0.000123324
10388096.0 -0.001326948 -0.000134388
10412608.0 -0.001327714 -0.000126594
10437120.0 -0.001302796 -0.000135542
10461632.0 -0.001341978 -0.000131088
10486144.0 -0.001314084 -0.000120282
10510656.0 -0.001317816 -0.000141155
10535168.0 -0.001322866 -0.000105893
10559680.0 -0.001301588 -0.000130793
10584192.0 -0.001321754 -0.000142953
10608704.0 -0.001321157 -0.000125041
10633216.0 -0.001328467 -0.000146364
10657728.0 -0.001318309 -0.000118186
10682240.0 -0.001313095 -0.000123988
10706752.0 -0.001332928 -0.000142756
10731264.0 -0.001322722 -0.000122057
10755776.0 -0.001304626 -0.000128028
10780288.0 -0.001311979 -0.000142445
10804800.0 -0.001318496 -0.000138584
10829312.0 -0.001325374 -0.00013416
10853824.0 -0.001338888 -0.000136668
10878336.0 -0.001316799 -0.000133111
10902848.0 -0.001317709 -0.000143543
10927360.0 -0.001314993 -0.000129573
10951872.0 -0.001304704 -0.000140261
10976384.0 -0.001331325 -0.000131876
11000896.0 -0.001306443 -0.000118796
11025408.0 -0.001331152 -0.000150152
11049920.0 -0.001323844 -0.000132758
11074432.0 -0.001300338 -0.000155004
11098944.0 -0.001327098 -0.000120123
11123456.0 -0.00132668 -0.000131338
11147968.0 -0.001321443 -0.00014754
11172480.0 -0.001326609 -0.000131908
11196992.0 -0.001313655 -0.000147322
11221504.0 -0.001320499 -0.00013063
11246016.0 -0.001319542 -0.000131513
11270528.0 -0.001315603 -0.000156264
11295040.0 -0.001314607 -0.000126471
11319552.0 -0.001320878 -0.000152654
11344064.0 -0.001336263 -0.000137464
11368576.0 -0.001308497 -0.000139434
11393088.0 -0.001312752 -0.000158543
11417600.0 -0.001320804 -0.000139105
11442112.0 -0.001318937 -0.000160176
11466624.0 -0.001340401 -0.000158943
11491136.0 -0.001330026 -0.000138799
11515648.0 -0.001326349 -0.000138968
11540160.0 -0.001311423 -0.000147294
11564672.0 -0.001318275 -0.000162323
11589184.0 -0.00133229 -0.000147856
11613696.0 -0.001316569 -0.000141111
11638208.0 -0.001314008 -0.000149236
11662720.0 -0.001327628 -0.000145217
11687232.0 -0.001314601 -0.000136604
11711744.0 -0.001316942 -0.00016092
11736256.0 -0.001328994 -0.000140092
11760768.0 -0.001318017 -0.000140004
11785280.0 -0.001330807 -0.000157932
11809792.0 -0.001313556 -0.00015336
11834304.0 -0.001324068 -0.000156924
11858816.0 -0.001320494 -0.000142379
11883328.0 -0.001318727 -0.0001612
11907840.0 -0.00133693 -0.000147821
11932352.0 -0.001307338 -0.000137244
11956864.0 -0.001305788 -0.000160647
11981376.0 -0.001327822 -0.000147218
12005888.0 -0.00130702 -0.000154715
12030400.0 -0.00133888 -0.000149207
12054912.0 -0.001318669 -0.000149246
12079424.0 -0.001330698 -0.000175014
12103936.0 -0.001318548 -0.000137036
12128448.0 -0.001308495 -0.000164594
12152960.0 -0.001322193 -0.000141184
12177472.0 -0.001309666 -0.000151598
12201984.0 -0.001323305 -0.000145665
12226496.0 -0.00130666 -0.000147583
12251008.0 -0.001319728 -0.000177291
12275520.0 -0.001338951 -0.000156151
12300032.0 -0.001309485 -0.000149363
12324544.0 -0.001323348 -0.000170127
12349056.0 -0.001327286 -0.000137748
12373568.0 -0.001306846 -0.000172478
12398080.0 -0.001323551 -0.000143529
12422592.0 -0.001301906 -0.000156159
12447104.0 -0.001333544 -0.000172055
12471616.0 -0.001327387 -0.000142392
12496128.0 -0.001316879 -0.000150789
12520640.0 -0.001340247 -0.000161597
12545152.0 -0.001313708 -0.00014696
12569664.0 -0.00132552 -0.000169597
12594176.0 -0.001326313 -0.000158051
12618688.0 -0.001317054 -0.000172722
12643200.0 -0.001326589 -0.000156068
12667712.0 -0.001307981 -0.000168304
12692224.0 -0.001321722 -0.000173563
12716736.0 -0.001317985 -0.00016479
12741248.0 -0.001323123 -0.000181267
12765760.0 -0.001322741 -0.000167282
12790272.0 -0.001306471 -0.00015218
12814784.0 -0.001335011 -0.000174571
12839296.0 -0.001320564 -0.000135926
12863808.0 -0.001315611 -0.000169138
12888320.0 -0.001343755 -0.000152683
12912832.0 -0.001311998 -0.000159777
12937344.0 -0.001330611 -0.000175512
12961856.0 -0.001317991 -0.00015316
12986368.0 -0.001303051 -0.000181701
13010880.0 -0.001326329 -0.000146361
13035392.0 -0.001312947 -0.000152558
13059904.0 -0.001326673 -0.000150586
13084416.0 -0.001325326 -0.000162651
13108928.0 -0.001316842 -0.000167914
13133440.0 -0.001316734 -0.000174262
13157952.0 -0.001321682 -0.000166693
13182464.0 -0.001316472 -0.000169318
13206976.0 -0.001334711 -0.000160925
13231488.0 -0.001325187 -0.000155669
13256000.0 -0.001325771 -0.000172869
13280512.0 -0.001314283 -0.000160409
13305024.0 -0.001320212 -0.000183336
13329536.0 -0.001328321 -0.000155299
13354048.0 -0.001322667 -0.000162193
13378560.0 -0.001333871 -0.000174795
13403072.0 -0.001335869 -0.000154257
13427584.0 -0.001321407 -0.000172791
13452096.0 -0.001329764 -0.000172732
13476608.0 -0.001309468 -0.000178763
13501120.0 -0.001318179 -0.00017915
13525632.0 -0.001324071 -0.000167378
13550144.0 -0.001334217 -0.000161098
13574656.0 -0.001321363 -0.000170302
13599168.0 -0.001313615 -0.000167047
13623680.0 -0.001332819 -0.000181563
13648192.0 -0.001349356 -0.000181356
13672704.0 -0.001317511 -0.000163755
13697216.0 -0.001337024 -0.00016485
13721728.0 -0.001329208 -0.000154253
13746240.0 -0.001323729 -0.000194045
13770752.0 -0.001327355 -0.000164182
13795264.0 -0.001329832 -0.000192937
13819776.0 -0.001327795 -0.000165374
13844288.0 -0.001307624 -0.000156838
13868800.0 -0.001323095 -0.000171805
13893312.0 -0.001321718 -0.00016173
13917824.0 -0.001331803 -0.000188818
13942336.0 -0.001324642 -0.000175988
13966848.0 -0.001317101 -0.000188652
13991360.0 -0.001328935 -0.000185253
14015872.0 -0.001323498 -0.000154135
14040384.0 -0.001346202 -0.0001999
14064896.0 -0.001312986 -0.00016932
14089408.0 -0.001310925 -0.000171271
14113920.0 -0.001331777 -0.000169297
14138432.0 -0.001324581 -0.000176013
14162944.0 -0.001312465 -0.000197256
14187456.0 -0.001333251 -0.000186266
14211968.0 -0.001316501 -0.000180692
14236480.0 -0.001319384 -0.000181679
14260992.0 -0.00132361 -0.000171479
14285504.0 -0.001305013 -0.000185858
14310016.0 -0.001334187 -0.000187052
14334528.0 -0.001306129 -0.000182184
14359040.0 -0.001342471 -0.000205969
14383552.0 -0.001325966 -0.000185655
14408064.0 -0.001333007 -0.000187388
14432576.0 -0.001340862 -0.000179135
14457088.0 -0.001331171 -0.000181991
14481600.0 -0.001334674 -0.000197742
14506112.0 -0.00133061 -0.000185147
14530624.0 -0.001326671 -0.000202429
14555136.0 -0.001330671 -0.000181623
14579648.0 -0.001316881 -0.000180142
14604160.0 -0.001322233 -0.000198032
14628672.0 -0.001333685 -0.000194912
14653184.0 -0.001309967 -0.000214119
14677696.0 -0.001337898 -0.000197358
14702208.0 -0.00132097 -0.000192221
