! Created with skrf (http://scikit-rf.org).
# Hz S RI R 50.0 
!freq ReS11 ImS11
1000000.0 0.08362164 0.00077747
1024512.0 0.083630864 0.000758069
1049024.0 0.083638432 0.000768338
1073536.0 0.083622008 0.000738654
1098048.0 0.0836314 0.000729442
1122560.0 0.083617808 0.000694482
1147072.0 0.083618344 0.000723646
1171584.0 0.083617296 0.000699614
1196096.0 0.083618888 0.000690803
1220608.0 0.083624784 0.000697145
1245120.0 0.08361224 0.000675134
1269632.0 0.083623608 0.000645718
1294144.0 0.08360512 0.000662179
1318656.0 0.083621616 0.000644316
1343168.0 0.083614824 0.000637412
1367680.0 0.083622128 0.000633371
1392192.0 0.083621072 0.000624397
1416704.0 0.083607424 0.000620673
1441216.0 0.083619544 0.000608129
1465728.0 0.083601864 0.000567399
1490240.0 0.08360168 0.000598623
1514752.0 0.083609328 0.000566878
1539264.0 0.083612344 0.000581453
1563776.0 0.083599936 0.000547618
1588288.0 0.08358908 0.000551344
1612800.0 0.083610568 0.000525798
1637312.0 0.083596248 0.000536918
1661824.0 0.08360912 0.000525119
1686336.0 0.083586824 0.000520654
1710848.0 0.08361404 0.000502868
1735360.0 0.083606712 0.000481657
1759872.0 0.083608232 0.000493195
1784384.0 0.083603248 0.000475517
1808896.0 0.083593968 0.000474951
1833408.0 0.083590384 0.000461699
1857920.0 0.08359868 0.000443513
1882432.0 0.08360136 0.000460118
1906944.0 0.083593448 0.000427015
1931456.0 0.083593664 0.000441361
1955968.0 0.083595192 0.000406628
1980480.0 0.083584856 0.000429581
2004992.0 0.083601632 0.000401018
2029504.0 0.083586776 0.000412987
2054016.0 0.083592432 0.000392279
2078528.0 0.083584488 0.000385521
2103040.0 0.083580456 0.000361277
2127552.0 0.083579272 0.000358319
2152064.0 0.083593512 0.000360316
2176576.0 0.0835978 0.000330893
2201088.0 0.083589816 0.000335698
2225600.0 0.083582424 0.000324816
2250112.0 0.083584448 0.000327175
2274624.0 0.083584216 0.000353519
2299136.0 0.083585632 0.000312027
2323648.0 0.08358076 0.000315827
2348160.0 0.08358756 0.000295873
2372672.0 0.083575792 0.00028456
2397184.0 0.083590376 0.000283819
2421696.0 0.083575848 0.000258516
2446208.0 0.083573312 0.000270876
2470720.0 0.083575928 0.000258476
2495232.0 0.083559224 0.000248181
2519744.0 0.083584424 0.000241401
2544256.0 0.083571216 0.000241133
2568768.0 0.083581744 0.000212171
2593280.0 0.083564288 0.000215945
2617792.0 0.083577208 0.000215337
2642304.0 0.083567888 0.000179348
2666816.0 0.08356088 0.000197312
2691328.0 0.083566664 0.000176396
2715840.0 0.083553352 0.000184777
2740352.0 0.083572336 0.00017149
2764864.0 0.083573512 0.000154412
2789376.0 0.083569352 0.000148964
2813888.0 0.083559688 0.000134339
2838400.0 0.083571472 0.000145044
2862912.0 0.083556176 0.000112019
2887424.0 0.08354776 0.000136268
2911936.0 0.08357444 0.000122463
2936448.0 0.083558712 0.000104787
2960960.0 0.083580432 0.000108232
2985472.0 0.083551904 7.117e-05
3009984.0 0.08354976 8.6471e-05
3034496.0 0.083575344 7.5967e-05
3059008.0 0.08355452 5.9266e-05
3083520.0 0.083565232 4.385e-05
3108032.0 0.083550584 3.3969e-05
3132544.0 0.083548128 5.9934e-05
3157056.0 0.083562896 4.5516e-05
3181568.0 0.083545936 1.4939e-05
3206080.0 0.083562008 2.3003e-05
3230592.0 0.083550928 -6.55e-07
3255104.0 0.0835562 2.3475e-05
3279616.0 0.083551872 -1.3127e-05
3304128.0 0.083542024 -1.675e-05
3328640.0 0.083568752 -2.1244e-05
3353152.0 0.083550296 -2.9762e-05
3377664.0 0.083565856 -2.8883e-05
3402176.0 0.08354696 -3.9154e-05
3426688.0 0.083558784 -4.6816e-05
3451200.0 0.08354192 -6.2664e-05
3475712.0 0.08356608 -6.3734e-05
3500224.0 0.08353872 -5.5879e-05
3524736.0 0.083566824 -6.502e-05
3549248.0 0.083548144 -8.4707e-05
3573760.0 0.083535936 -9.2422e-05
3598272.0 0.08354596 -0.000104601
3622784.0 0.083543416 -0.000111893
3647296.0 0.08356316 -0.000130178
3671808.0 0.083543 -0.000131702
3696320.0 0.083551424 -0.000129929
3720832.0 0.083563792 -0.000156754
3745344.0 0.083543848 -0.000153171
3769856.0 0.083552552 -0.000153771
3794368.0 0.083534088 -0.000151872
3818880.0 0.083552008 -0.000161961
3843392.0 0.083529856 -0.000175325
3867904.0 0.083533624 -0.000175276
3892416.0 0.083547264 -0.000203995
3916928.0 0.083533656 -0.000192529
3941440.0 0.08353276 -0.000208919
3965952.0 0.083543752 -0.000213886
3990464.0 0.08353148 -0.000216104
4014976.0 0.083540352 -0.000229096
4039488.0 0.083530216 -0.000241974
4064000.0 0.083534256 -0.000244556
4088512.0 0.083550232 -0.0002542
4113024.0 0.083518952 -0.000274274
4137536.0 0.083549144 -0.000287856
4162048.0 0.0835044 -0.000263411
4186560.0 0.083532144 -0.000268394
4211072.0 0.08353828 -0.000309756
4235584.0 0.083529664 -0.000300829
4260096.0 0.083530968 -0.000314736
4284608.0 0.083537344 -0.000319128
4309120.0 0.083522488 -0.00033073
4333632.0 0.083523816 -0.000337982
4358144.0 0.083536152 -0.000344045
4382656.0 0.083533144 -0.000352282
4407168.0 0.083533176 -0.000341911
4431680.0 0.083545944 -0.000344467
4456192.0 0.083525384 -0.000377274
4480704.0 0.083529 -0.00037696
4505216.0 0.083526528 -0.000391837
4529728.0 0.083509488 -0.000398632
4554240.0 0.083513392 -0.000404514
4578752.0 0.083534304 -0.000391313
4603264.0 0.083534752 -0.000399037
4627776.0 0.083519256 -0.000411281
4652288.0 0.083522152 -0.000423193
4676800.0 0.083515472 -0.000426036
4701312.0 0.083512992 -0.00045804
4725824.0 0.08352204 -0.000435509
4750336.0 0.08351968 -0.000465528
4774848.0 0.08351308 -0.000452463
4799360.0 0.08351456 -0.000475459
4823872.0 0.083506056 -0.000473058
4848384.0 0.083514912 -0.000492944
4872896.0 0.083512704 -0.000506079
4897408.0 0.083514552 -0.000500467
4921920.0 0.083512152 -0.000521009
4946432.0 0.083506256 -0.000533148
4970944.0 0.083513848 -0.00051049
4995456.0 0.083525968 -0.000535613
5019968.0 0.083496016 -0.000541763
5044480.0 0.0835234 -0.00053288
5068992.0 0.083505128 -0.000559758
5093504.0 0.08349748 -0.000554987
5118016.0 0.083505192 -0.000584485
5142528.0 0.083492816 -0.000569125
5167040.0 0.083505472 -0.000578012
5191552.0 0.083493136 -0.000596281
5216064.0 0.08351636 -0.000595468
5240576.0 0.083508456 -0.000598213
5265088.0 0.083491232 -0.000610267
5289600.0 0.083524712 -0.000627778
5314112.0 0.08348564 -0.000647607
5338624.0 0.08349328 -0.0006327
5363136.0 0.083502288 -0.000642003
5387648.0 0.083509288 -0.000649757
5412160.0 0.083503824 -0.00065759
5436672.0 0.083504424 -0.000670106
5461184.0 0.083515584 -0.000661171
5485696.0 0.083497528 -0.000669198
5510208.0 0.083509896 -0.000697912
5534720.0 0.083500624 -0.000684026
5559232.0 0.083503536 -0.000693867
5583744.0 0.08349368 -0.000699908
5608256.0 0.083489424 -0.000705933
5632768.0 0.08348928 -0.00072636
5657280.0 0.083483472 -0.000721043
5681792.0 0.083482744 -0.00073257
5706304.0 0.083493928 -0.000742564
5730816.0 0.083492512 -0.000740502
5755328.0 0.08349904 -0.000760492
5779840.0 0.0834844 -0.000757329
5804352.0 0.083482512 -0.000763876
5828864.0 0.083490672 -0.000761297
5853376.0 0.08348728 -0.000778041
5877888.0 0.083490672 -0.000788175
5902400.0 0.083492344 -0.000793526
5926912.0 0.083497552 -0.000804415
5951424.0 0.08347464 -0.000813532
5975936.0 0.083481896 -0.000808948
6000448.0 0.083470704 -0.000821476
6024960.0 0.083468448 -0.000808676
6049472.0 0.083474336 -0.000829183
6073984.0 0.08347636 -0.000839844
6098496.0 0.083476088 -0.000843708
6123008.0 0.08347904 -0.000860542
6147520.0 0.083485912 -0.000851728
6172032.0 0.083481832 -0.000869504
6196544.0 0.08347544 -0.00086507
6221056.0 0.083464616 -0.000857913
6245568.0 0.083477896 -0.000870579
6270080.0 0.083468616 -0.000880708
6294592.0 0.083479544 -0.000883489
6319104.0 0.083472776 -0.000882048
6343616.0 0.083484832 -0.000877591
6368128.0 0.083478504 -0.000898941
6392640.0 0.083469432 -0.000881473
6417152.0 0.08348212 -0.00089738
6441664.0 0.083489248 -0.000885549
6466176.0 0.08348648 -0.000869967
6490688.0 0.083490424 -0.000895246
6515200.0 0.083499784 -0.000861387
6539712.0 0.083510144 -0.000874743
6564224.0 0.08353712 -0.000875044
6588736.0 0.08355024 -0.000858913
6613248.0 0.08354772 -0.000857179
6637760.0 0.083584984 -0.000844887
6662272.0 0.083610304 -0.000849064
6686784.0 0.08362948 -0.000867312
6711296.0 0.08368064 -0.000872793
6735808.0 0.083687064 -0.000867226
6760320.0 0.083699976 -0.000909234
6784832.0 0.083696712 -0.000932124
6809344.0 0.08369516 -0.000960566
6833856.0 0.083705368 -0.000993787
6858368.0 0.083701584 -0.000995251
6882880.0 0.083695464 -0.001025694
6907392.0 0.08367712 -0.001044095
6931904.0 0.083672496 -0.001055004
6956416.0 0.083662168 -0.001083055
6980928.0 0.08365936 -0.001078256
7005440.0 0.083648736 -0.001104308
7029952.0 0.083632616 -0.001118725
7054464.0 0.083640552 -0.001109381
7078976.0 0.08362124 -0.001145606
7103488.0 0.083622672 -0.001142176
7128000.0 0.08360496 -0.001154407
7152512.0 0.083601984 -0.001156146
7177024.0 0.083597744 -0.001171774
7201536.0 0.083595744 -0.001179504
7226048.0 0.083609528 -0.001196271
7250560.0 0.083597344 -0.001188007
7275072.0 0.083616416 -0.001212323
7299584.0 0.083582352 -0.001219408
7324096.0 0.08360512 -0.001220277
7348608.0 0.083577144 -0.001231428
7373120.0 0.083571016 -0.001228038
7397632.0 0.083588672 -0.001236195
7422144.0 0.083576264 -0.001261638
7446656.0 0.08357452 -0.001273932
7471168.0 0.083569904 -0.001271361
7495680.0 0.083570928 -0.001279978
7520192.0 0.08356428 -0.001297183
7544704.0 0.08357064 -0.001285655
7569216.0 0.08356992 -0.001290197
7593728.0 0.083546072 -0.001321199
7618240.0 0.083567832 -0.001309971
7642752.0 0.083558808 -0.001327384
7667264.0 0.083560696 -0.001328519
7691776.0 0.083555224 -0.001330827
7716288.0 0.083560808 -0.001354692
7740800.0 0.0835588 -0.001357916
7765312.0 0.083550008 -0.001360609
7789824.0 0.083562248 -0.001369784
7814336.0 0.083557856 -0.001368745
7838848.0 0.08355976 -0.001386066
7863360.0 0.083556072 -0.001389834
7887872.0 0.083540728 -0.001400521
7912384.0 0.083535496 -0.001418375
7936896.0 0.083550688 -0.001402497
7961408.0 0.083549448 -0.001419065
7985920.0 0.08353752 -0.001441725
8010432.0 0.083548488 -0.001448379
8034944.0 0.083545528 -0.001453247
8059456.0 0.083534488 -0.001466678
8083968.0 0.08355612 -0.001466464
8108480.0 0.083533576 -0.001469859
8132992.0 0.083548528 -0.001495498
8157504.0 0.083520432 -0.001475508
8182016.0 0.083553616 -0.001502118
8206528.0 0.083547344 -0.001505243
8231040.0 0.083528816 -0.001513834
8255552.0 0.083547072 -0.001512304
8280064.0 0.083533096 -0.001535353
8304576.0 0.083536976 -0.00153787
8329088.0 0.083536432 -0.001549538
8353600.0 0.083544208 -0.001541484
8378112.0 0.08353872 -0.001562353
8402624.0 0.08352704 -0.001560111
8427136.0 0.08354508 -0.001569517
8451648.0 0.08352648 -0.001579757
8476160.0 0.083540368 -0.001592848
8500672.0 0.083537912 -0.00158623
8525184.0 0.083523888 -0.001590921
8549696.0 0.08353464 -0.001616092
8574208.0 0.083511176 -0.00162354
8598720.0 0.0835398 -0.001644812
8623232.0 0.083535352 -0.001641657
8647744.0 0.083528792 -0.001635214
8672256.0 0.083540056 -0.001661234
8696768.0 0.0835216 -0.00165579
8721280.0 0.08352984 -0.001669979
8745792.0 0.08352756 -0.001684009
8770304.0 0.083506856 -0.00168001
8794816.0 0.083543576 -0.001693216
8819328.0 0.08351584 -0.001703328
8843840.0 0.083537272 -0.001713283
8868352.0 0.083507512 -0.001708476
8892864.0 0.083538936 -0.001698802
8917376.0 0.083533152 -0.001723385
8941888.0 0.083532048 -0.001731951
8966400.0 0.083515968 -0.0017385
8990912.0 0.083511912 -0.001748194
9015424.0 0.083527272 -0.001753861
9039936.0 0.08351904 -0.001759364
9064448.0 0.083514376 -0.001745954
9088960.0 0.083529848 -0.00178842
9113472.0 0.083509608 -0.001788596
9137984.0 0.08353328 -0.001789236
9162496.0 0.083515584 -0.001804702
9187008.0 0.083521424 -0.001797382
9211520.0 0.083522464 -0.001812953
9236032.0 0.083497856 -0.001816849
9260544.0 0.083522904 -0.001844018
9285056.0 0.08351404 -0.001827617
9309568.0 0.083525048 -0.001840563
9334080.0 0.083517256 -0.001864538
9358592.0 0.083501072 -0.001856928
9383104.0 0.083526664 -0.001866043
9407616.0 0.083506376 -0.001861995
9432128.0 0.083527568 -0.001871069
9456640.0 0.083508144 -0.001882942
9481152.0 0.0835042 -0.001902951
9505664.0 0.083513872 -0.00190814
9530176.0 0.083501488 -0.001910784
9554688.0 0.083514776 -0.001913354
9579200.0 0.083516448 -0.001911999
9603712.0 0.083524552 -0.001930464
9628224.0 0.083527912 -0.00194739
9652736.0 0.083514416 -0.00194622
9677248.0 0.083527624 -0.001945573
9701760.0 0.08349104 -0.00196753
9726272.0 0.083517224 -0.001961367
9750784.0 0.08352208 -0.001983224
9775296.0 0.083516728 -0.001980661
9799808.0 0.083514864 -0.00198742
9824320.0 0.083524312 -0.001996671
9848832.0 0.083508136 -0.001997794
9873344.0 0.083499392 -0.002023321
9897856.0 0.083491768 -0.002016076
9922368.0 0.083501552 -0.002017997
9946880.0 0.083512408 -0.002033637
9971392.0 0.08349556 -0.002044967
9995904.0 0.0835252 -0.00204765
10020416.0 0.083492728 -0.002058042
10044928.0 0.083507744 -0.002065019
10069440.0 0.083518824 -0.002075239
10093952.0 0.083498936 -0.002063074
10118464.0 0.08350568 -0.002088075
10142976.0 0.08349496 -0.002104755
10167488.0 0.083509824 -0.002096845
10192000.0 0.083509704 -0.002114422
10216512.0 0.083509592 -0.002116981
10241024.0 0.083520992 -0.002126547
10265536.0 0.08349968 -0.002124026
10290048.0 0.08351 -0.002128556
10314560.0 0.083494216 -0.002148845
10339072.0 0.083500208 -0.002156294
10363584.0 0.083507 -0.002165536
10388096.0 0.083506536 -0.002167369
10412608.0 0.083501256 -0.00217827
10437120.0 0.083508616 -0.002193004
10461632.0 0.083486656 -0.0021663
10486144.0 0.083494192 -0.002201469
10510656.0 0.083486872 -0.00220273
10535168.0 0.083515136 -0.002216396
10559680.0 0.083488016 -0.002220968
10584192.0 0.08350968 -0.002225801
10608704.0 0.08351268 -0.002240504
10633216.0 0.083502472 -0.002246751
10657728.0 0.083504032 -0.002240206
10682240.0 0.083503432 -0.002268773
10706752.0 0.083498912 -0.002242809
10731264.0 0.083515408 -0.002270564
10755776.0 0.083500056 -0.002287792
10780288.0 0.083490792 -0.002279216
10804800.0 0.083514312 -0.002305029
10829312.0 0.083498688 -0.002303338
10853824.0 0.08349992 -0.002305389
10878336.0 0.083491712 -0.002336658
10902848.0 0.083494872 -0.00232008
10927360.0 0.08348752 -0.002343764
10951872.0 0.08349036 -0.002319196
10976384.0 0.083508144 -0.002341983
11000896.0 0.083484584 -0.00235392
11025408.0 0.08350192 -0.002354929
11049920.0 0.083490752 -0.00237133
11074432.0 0.083487312 -0.002363586
11098944.0 0.0835046 -0.002376299
11123456.0 0.083497312 -0.002401561
11147968.0 0.083484176 -0.002397955
11172480.0 0.083494056 -0.002409991
11196992.0 0.083489776 -0.002414591
11221504.0 0.083505144 -0.002435441
11246016.0 0.083492792 -0.002427197
11270528.0 0.08349048 -0.002428289
11295040.0 0.083488368 -0.002447371
11319552.0 0.083484952 -0.002457293
11344064.0 0.08348936 -0.002451324
11368576.0 0.083491488 -0.002472301
11393088.0 0.083468096 -0.002477974
11417600.0 0.083496576 -0.002472141
11442112.0 0.083489304 -0.002479418
11466624.0 0.083498184 -0.002493114
11491136.0 0.083489112 -0.002500449
11515648.0 0.08349292 -0.002495877
11540160.0 0.0834852 -0.002529445
11564672.0 0.083471256 -0.002521492
11589184.0 0.083483368 -0.002542207
11613696.0 0.083488504 -0.002536788
11638208.0 0.083480248 -0.002536643
11662720.0 0.083487544 -0.002564162
11687232.0 0.083486296 -0.002587262
11711744.0 0.0834772 -0.002551475
11736256.0 0.083504624 -0.002570965
11760768.0 0.08346288 -0.002584382
11785280.0 0.083481088 -0.002583907
11809792.0 0.083468696 -0.002604678
11834304.0 0.083474992 -0.002600184
11858816.0 0.083509176 -0.002615292
11883328.0 0.083468864 -0.002609768
11907840.0 0.0834932 -0.002622656
11932352.0 0.083473936 -0.00262343
11956864.0 0.08348272 -0.002650778
11981376.0 0.083476376 -0.002648273
12005888.0 0.083462992 -0.002655699
12030400.0 0.083489408 -0.002666608
12054912.0 0.083466328 -0.002662772
12079424.0 0.083484128 -0.002673908
12103936.0 0.083480992 -0.002706863
12128448.0 0.083476512 -0.002682641
12152960.0 0.083488088 -0.002698825
12177472.0 0.083472984 -0.002713707
12201984.0 0.083485384 -0.002713574
12226496.0 0.083490336 -0.002728735
12251008.0 0.083461024 -0.002721698
12275520.0 0.083488912 -0.002736322
12300032.0 0.083469936 -0.002753596
12324544.0 0.083485168 -0.002743678
12349056.0 0.083478736 -0.002761368
12373568.0 0.083472728 -0.002762406
12398080.0 0.083477184 -0.002777011
12422592.0 0.08347252 -0.002782571
12447104.0 0.083478824 -0.00279022
12471616.0 0.083467504 -0.002795961
12496128.0 0.08347952 -0.002812267
12520640.0 0.08348544 -0.002820878
12545152.0 0.083475312 -0.002822746
12569664.0 0.083467144 -0.002819649
12594176.0 0.083479256 -0.002840607
12618688.0 0.083461344 -0.002846525
12643200.0 0.083474792 -0.002862142
12667712.0 0.083474368 -0.002863677
12692224.0 0.083481696 -0.002850989
12716736.0 0.083469216 -0.002873246
12741248.0 0.083468456 -0.002857705
12765760.0 0.083476704 -0.002893125
12790272.0 0.083477328 -0.002885635
12814784.0 0.083485872 -0.002901658
12839296.0 0.083471016 -0.002905624
12863808.0 0.08346348 -0.002916666
12888320.0 0.083471752 -0.00292952
12912832.0 0.08347124 -0.002936372
12937344.0 0.083471528 -0.002933763
12961856.0 0.083466272 -0.002961922
12986368.0 0.083472152 -0.002941812
13010880.0 0.083470176 -0.002959452
13035392.0 0.083476152 -0.002974211
13059904.0 0.083473896 -0.002966978
13084416.0 0.08348088 -0.002970728
13108928.0 0.083459424 -0.002984554
13133440.0 0.083478864 -0.002985579
13157952.0 0.083449992 -0.003022776
13182464.0 0.083456024 -0.00299369
13206976.0 0.083470936 -0.003013549
13231488.0 0.083458552 -0.003031634
13256000.0 0.083466984 -0.003030441
13280512.0 0.083478592 -0.00304173
13305024.0 0.083473064 -0.003049897
13329536.0 0.083469648 -0.003047772
13354048.0 0.083477032 -0.003063925
13378560.0 0.083457672 -0.003056733
13403072.0 0.083458488 -0.003080533
13427584.0 0.083461616 -0.003087758
13452096.0 0.083457016 -0.003080858
13476608.0 0.083473984 -0.003086384
13501120.0 0.083460128 -0.003119754
13525632.0 0.083470368 -0.003096267
13550144.0 0.083475 -0.00312537
13574656.0 0.083455768 -0.003120029
13599168.0 0.083470392 -0.003125857
13623680.0 0.083461712 -0.003142899
13648192.0 0.083457 -0.003143151
13672704.0 0.083463832 -0.003163432
13697216.0 0.083444296 -0.003153503
13721728.0 0.083461856 -0.003163034
13746240.0 0.083437144 -0.003201874
13770752.0 0.0834624 -0.003193425
13795264.0 0.083456416 -0.003201204
13819776.0 0.08346064 -0.003190265
13844288.0 0.083468712 -0.003204311
13868800.0 0.083456712 -0.003199736
13893312.0 0.083446808 -0.003221769
13917824.0 0.083462992 -0.003238135
13942336.0 0.083440496 -0.003219562
13966848.0 0.083463512 -0.00326368
13991360.0 0.08345548 -0.003235075
14015872.0 0.083459952 -0.003265276
14040384.0 0.083458848 -0.003278
14064896.0 0.083435552 -0.003269738
14089408.0 0.083459608 -0.003282506
14113920.0 0.083445224 -0.003282379
14138432.0 0.083449896 -0.003285377
14162944.0 0.083449656 -0.003306018
14187456.0 0.08345952 -0.003305166
14211968.0 0.083470256 -0.003307166
14236480.0 0.083454344 -0.003328568
14260992.0 0.083452856 -0.003321426
14285504.0 0.083452464 -0.003331998
14310016.0 0.083429024 -0.003347783
14334528.0 0.083464504 -0.003364374
14359040.0 0.083436512 -0.003358865
14383552.0 0.0834486 -0.003361089
14408064.0 0.083446688 -0.003386342
14432576.0 0.0834398 -0.003374577
14457088.0 0.083460408 -0.003384852
14481600.0 0.083415536 -0.003395281
14506112.0 0.083444656 -0.003392744
14530624.0 0.083465584 -0.003422983
14555136.0 0.083443176 -0.003416345
14579648.0 0.083443736 -0.003418667
14604160.0 0.083449424 -0.003432907
14628672.0 0.0834388 -0.00342455
14653184.0 0.083451424 -0.003462501
14677696.0 0.083440296 -0.003463867
14702208.0 0.083462704 -0.003451828
14726720.0 0.08343412 -0.003466308
14751232.0 0.083442464 -0.003480028
14775744.0 0.08343976 -0.003493711
14800256.0 0.08343672 -0.003488751
14824768.0 0.083467608 -0.003496584
14849280.0 0.083440848 -0.003538369
14873792.0 0.083456016 -0.003507233
14898304.0 0.08344984 -0.003517039
14922816.0 0.08343504 -0.003513463
14947328.0 0.083450256 -0.003532592
14971840.0 0.08344896 -0.00353344
14996352.0 0.083457344 -0.003552917
