! Created with skrf (http://scikit-rf.org).
# Hz S RI R 50.0 
!freq ReS11 ImS11
1000000.0 -0.088851744 -0.000814912
1024512.0 -0.088853816 -0.000779879
1049024.0 -0.088875424 -0.000765104
1073536.0 -0.088856224 -0.000774356
1098048.0 -0.088871048 -0.000750854
1122560.0 -0.08886872 -0.000744889
1147072.0 -0.088880928 -0.00073499
1171584.0 -0.088846928 -0.000732208
1196096.0 -0.08888612 -0.000721899
1220608.0 -0.088858616 -0.000702428
1245120.0 -0.088864984 -0.000701611
1269632.0 -0.088854912 -0.000691845
1294144.0 -0.0888774 -0.00069521
1318656.0 -0.088858744 -0.00067162
1343168.0 -0.08886448 -0.000676923
1367680.0 -0.088875344 -0.000640213
1392192.0 -0.088853568 -0.000638058
1416704.0 -0.088890672 -0.000639066
1441216.0 -0.0888376 -0.000650402
1465728.0 -0.08886904 -0.000635176
1490240.0 -0.088832072 -0.000609136
1514752.0 -0.088857528 -0.000639523
1539264.0 -0.088876664 -0.000592705
1563776.0 -0.088854976 -0.000593163
1588288.0 -0.088843776 -0.00056661
1612800.0 -0.088843856 -0.000584375
1637312.0 -0.088835152 -0.000534978
1661824.0 -0.088830392 -0.000555705
1686336.0 -0.088856856 -0.000534945
1710848.0 -0.08882212 -0.000540206
1735360.0 -0.088852736 -0.000527907
1759872.0 -0.088830704 -0.000526874
1784384.0 -0.088851376 -0.000516739
1808896.0 -0.088854408 -0.000485521
1833408.0 -0.088839624 -0.000496602
1857920.0 -0.088863976 -0.000489349
1882432.0 -0.088816336 -0.000483918
1906944.0 -0.0888306 -0.00046778
1931456.0 -0.08882528 -0.00047152
1955968.0 -0.08884344 -0.000461939
1980480.0 -0.088813408 -0.000461811
2004992.0 -0.088841352 -0.000418665
2029504.0 -0.088822312 -0.000437504
2054016.0 -0.088855856 -0.000417588
2078528.0 -0.08881128 -0.000434024
2103040.0 -0.088838672 -0.000431659
2127552.0 -0.088832768 -0.000395061
2152064.0 -0.088836072 -0.000422845
2176576.0 -0.088847608 -0.000381112
2201088.0 -0.088812944 -0.000403541
2225600.0 -0.088852104 -0.000359072
2250112.0 -0.088830624 -0.0003845
2274624.0 -0.088847008 -0.00037528
2299136.0 -0.08883428 -0.000339635
2323648.0 -0.088832152 -0.000354603
2348160.0 -0.08882432 -0.000319707
2372672.0 -0.088832424 -0.000320606
2397184.0 -0.088833888 -0.000310543
2421696.0 -0.088812344 -0.000322218
2446208.0 -0.088834192 -0.000314702
2470720.0 -0.0888152 -0.000290557
2495232.0 -0.088837144 -0.000294549
2519744.0 -0.088812656 -0.000270502
2544256.0 -0.088826424 -0.000273974
2568768.0 -0.088812176 -0.000249297
2593280.0 -0.088816544 -0.000267742
2617792.0 -0.088824128 -0.000235244
2642304.0 -0.088808336 -0.000267105
2666816.0 -0.088818536 -0.000239204
2691328.0 -0.088817328 -0.000245051
2715840.0 -0.088813224 -0.000211501
2740352.0 -0.088787456 -0.000198958
2764864.0 -0.088831488 -0.000208898
2789376.0 -0.08879112 -0.000198078
2813888.0 -0.0888096 -0.000189711
2838400.0 -0.088795064 -0.00018381
2862912.0 -0.08879536 -0.000189853
2887424.0 -0.088816328 -0.000173017
2911936.0 -0.088785032 -0.000169654
2936448.0 -0.088814128 -0.000165903
2960960.0 -0.088785144 -0.000141963
2985472.0 -0.088820952 -0.000147181
3009984.0 -0.088802464 -0.000124337
3034496.0 -0.088802992 -0.000137016
3059008.0 -0.088817832 -0.000110123
3083520.0 -0.08879368 -0.000118374
3108032.0 -0.088805128 -0.000113005
3132544.0 -0.088790032 -7.8896e-05
3157056.0 -0.088794848 -0.000112781
3181568.0 -0.088795 -6.3895e-05
3206080.0 -0.0888004 -8.7719e-05
3230592.0 -0.08881604 -5.6394e-05
3255104.0 -0.088797504 -8.0847e-05
3279616.0 -0.088805224 -3.3379e-05
3304128.0 -0.088769032 -3.7083e-05
3328640.0 -0.08879952 -5.5878e-05
3353152.0 -0.088784 -3.4089e-05
3377664.0 -0.088816088 -3.0077e-05
3402176.0 -0.088768056 8.376e-06
3426688.0 -0.088797424 -2.389e-06
3451200.0 -0.088806128 3.09e-07
3475712.0 -0.088760776 3.437e-06
3500224.0 -0.0887972 1.6281e-05
3524736.0 -0.088774208 1.8529e-05
3549248.0 -0.088816016 2.1135e-05
3573760.0 -0.088762896 3.7602e-05
3598272.0 -0.088798936 3.4825e-05
3622784.0 -0.0888064 6.0603e-05
3647296.0 -0.088772208 2.8915e-05
3671808.0 -0.088784976 7.594e-05
3696320.0 -0.088792032 6.6977e-05
3720832.0 -0.088814184 8.7836e-05
3745344.0 -0.088758464 8.6044e-05
3769856.0 -0.088794824 8.8069e-05
3794368.0 -0.08877956 0.000118618
3818880.0 -0.088767592 8.0428e-05
3843392.0 -0.088802904 0.000127565
3867904.0 -0.088772192 0.0001076
3892416.0 -0.088784592 0.00012234
3916928.0 -0.088765848 0.000129479
3941440.0 -0.088799272 0.000160839
3965952.0 -0.088773448 0.000123664
3990464.0 -0.088800632 0.000162801
4014976.0 -0.088772864 0.000174846
4039488.0 -0.088771728 0.000173523
4064000.0 -0.088766008 0.000192591
4088512.0 -0.088793968 0.000204815
4113024.0 -0.088778976 0.000201334
4137536.0 -0.088776432 0.000194299
4162048.0 -0.08876304 0.000208959
4186560.0 -0.088789744 0.00019951
4211072.0 -0.08877712 0.000219379
4235584.0 -0.088762376 0.00023113
4260096.0 -0.08878068 0.000252146
4284608.0 -0.088744696 0.000253012
4309120.0 -0.088795984 0.00026686
4333632.0 -0.0887532 0.000254481
4358144.0 -0.088777664 0.000259744
4382656.0 -0.088779648 0.000292949
4407168.0 -0.088759552 0.000275292
4431680.0 -0.088777272 0.000297463
4456192.0 -0.088741376 0.00028436
4480704.0 -0.0887644 0.000297162
4505216.0 -0.088747096 0.000322515
4529728.0 -0.088751192 0.000302581
4554240.0 -0.088769472 0.000344634
4578752.0 -0.088762144 0.0003509
4603264.0 -0.088790272 0.000326818
4627776.0 -0.08878328 0.000341147
4652288.0 -0.088747768 0.00032576
4676800.0 -0.088786336 0.000376564
4701312.0 -0.088760984 0.000364089
4725824.0 -0.08878004 0.000370702
4750336.0 -0.088755112 0.000388572
4774848.0 -0.088778552 0.000393564
4799360.0 -0.088763272 0.00040106
4823872.0 -0.08877292 0.000388092
4848384.0 -0.088776 0.00044119
4872896.0 -0.088749256 0.000433642
4897408.0 -0.08876 0.000418183
4921920.0 -0.088769008 0.000456923
4946432.0 -0.088763448 0.000416702
4970944.0 -0.088755824 0.000444042
4995456.0 -0.088741296 0.000464922
5019968.0 -0.088758024 0.000447292
5044480.0 -0.0887478 0.000503935
5068992.0 -0.08874596 0.000472312
5093504.0 -0.088766192 0.000486999
5118016.0 -0.088750352 0.000505418
5142528.0 -0.08876588 0.00049178
5167040.0 -0.08873872 0.00050614
5191552.0 -0.088756056 0.000490675
5216064.0 -0.088753776 0.000531276
5240576.0 -0.08874216 0.00053153
5265088.0 -0.08875544 0.000533356
5289600.0 -0.088757856 0.000550415
5314112.0 -0.088749472 0.000531463
5338624.0 -0.088755104 0.000552592
5363136.0 -0.088721384 0.000544721
5387648.0 -0.08875292 0.000563926
5412160.0 -0.088742952 0.000583499
5436672.0 -0.08875436 0.000582545
5461184.0 -0.088740888 0.000598288
5485696.0 -0.08876412 0.000584445
5510208.0 -0.088736176 0.000615133
5534720.0 -0.088735696 0.000591737
5559232.0 -0.088738536 0.000636739
5583744.0 -0.088743088 0.000604848
5608256.0 -0.088739488 0.000637222
5632768.0 -0.088731016 0.000627069
5657280.0 -0.088741576 0.000661887
5681792.0 -0.088731288 0.000664262
5706304.0 -0.088749168 0.000659435
5730816.0 -0.088733416 0.000670107
5755328.0 -0.088734936 0.000647067
5779840.0 -0.088721584 0.000675899
5804352.0 -0.088721448 0.000693452
5828864.0 -0.088744552 0.000696463
5853376.0 -0.088729312 0.000701871
5877888.0 -0.08874172 0.000697899
5902400.0 -0.088731312 0.000714419
5926912.0 -0.088734728 0.000706437
5951424.0 -0.088750424 0.000723774
5975936.0 -0.088714896 0.000739311
6000448.0 -0.088738832 0.000723124
6024960.0 -0.088731832 0.000730218
6049472.0 -0.088734536 0.000725255
6073984.0 -0.088726536 0.000772248
6098496.0 -0.08872672 0.000743564
6123008.0 -0.088730168 0.000758599
6147520.0 -0.088719704 0.000749326
6172032.0 -0.088743176 0.000750751
6196544.0 -0.088727032 0.000777927
6221056.0 -0.088725608 0.00076757
6245568.0 -0.088739392 0.00076305
6270080.0 -0.0887156 0.000785213
6294592.0 -0.0887354 0.000750291
6319104.0 -0.088729896 0.000801951
6343616.0 -0.088722432 0.000776283
6368128.0 -0.088742472 0.00080087
6392640.0 -0.088735824 0.000781644
6417152.0 -0.088770968 0.000752879
6441664.0 -0.088757424 0.000764016
6466176.0 -0.088777632 0.000736064
6490688.0 -0.088775456 0.000776941
6515200.0 -0.088794288 0.000730516
6539712.0 -0.088805288 0.000751517
6564224.0 -0.08882588 0.00071704
6588736.0 -0.088867272 0.00071401
6613248.0 -0.0888876 0.000705187
6637760.0 -0.088916112 0.00067821
6662272.0 -0.088955088 0.000726666
6686784.0 -0.08899064 0.000713886
6711296.0 -0.089038312 0.000728651
6735808.0 -0.0890162 0.000775473
6760320.0 -0.089042864 0.000822834
6784832.0 -0.08902752 0.000824729
6809344.0 -0.089060712 0.000855901
6833856.0 -0.089031232 0.000912851
6858368.0 -0.089020904 0.000928074
6882880.0 -0.089011776 0.000943723
6907392.0 -0.088979776 0.000984354
6931904.0 -0.088971448 0.000969684
6956416.0 -0.08894032 0.001024382
6980928.0 -0.088937856 0.001017359
7005440.0 -0.088918512 0.001044007
7029952.0 -0.088902208 0.001031753
7054464.0 -0.088894936 0.001066483
7078976.0 -0.08887608 0.001040603
7103488.0 -0.088883264 0.001078492
7128000.0 -0.088859912 0.001072823
7152512.0 -0.088866096 0.001080659
7177024.0 -0.08885704 0.001100231
7201536.0 -0.088858664 0.001098927
7226048.0 -0.088850224 0.001109931
7250560.0 -0.088843016 0.001105218
7275072.0 -0.08884532 0.001118372
7299584.0 -0.088813904 0.001110365
7324096.0 -0.088831008 0.001145476
7348608.0 -0.088821104 0.001146601
7373120.0 -0.08883688 0.001144583
7397632.0 -0.088806424 0.001152983
7422144.0 -0.0888368 0.001162888
7446656.0 -0.088788304 0.001163159
7471168.0 -0.088800344 0.001161539
7495680.0 -0.088802416 0.001185019
7520192.0 -0.088787776 0.001180518
7544704.0 -0.088816832 0.001198987
7569216.0 -0.088781016 0.001209552
7593728.0 -0.088801288 0.001192568
7618240.0 -0.08878132 0.001203384
7642752.0 -0.088793176 0.001227529
7667264.0 -0.088778344 0.001229338
7691776.0 -0.088796752 0.001228331
7716288.0 -0.088798328 0.001269051
7740800.0 -0.088792792 0.001247827
7765312.0 -0.088791808 0.001280624
7789824.0 -0.088766408 0.001264852
7814336.0 -0.088798592 0.001285924
7838848.0 -0.088761008 0.001289961
7863360.0 -0.08879152 0.00128226
7887872.0 -0.088774024 0.001300179
7912384.0 -0.0888018 0.001288598
7936896.0 -0.088784896 0.001334183
7961408.0 -0.088772976 0.001292544
7985920.0 -0.088783432 0.001321724
8010432.0 -0.088757984 0.001312473
8034944.0 -0.088792784 0.00132917
8059456.0 -0.088754312 0.001347192
8083968.0 -0.088772032 0.001329813
8108480.0 -0.0887718 0.001377476
8132992.0 -0.088762688 0.001350617
8157504.0 -0.088784744 0.001381542
8182016.0 -0.08876724 0.001385714
8206528.0 -0.088787112 0.001366777
8231040.0 -0.088762504 0.001406442
8255552.0 -0.088758168 0.001397902
8280064.0 -0.08878356 0.001412829
8304576.0 -0.088772384 0.001428347
8329088.0 -0.088791368 0.001412403
8353600.0 -0.0887652 0.001447546
8378112.0 -0.088772896 0.001435162
8402624.0 -0.088759408 0.001466633
8427136.0 -0.088769592 0.001453297
8451648.0 -0.088775832 0.001457966
8476160.0 -0.088755792 0.001452647
8500672.0 -0.088765712 0.001465376
8525184.0 -0.088765784 0.001480007
8549696.0 -0.08877492 0.00147886
8574208.0 -0.088752384 0.001493426
8598720.0 -0.08876728 0.00149621
8623232.0 -0.088767224 0.001499912
8647744.0 -0.088741248 0.001519849
8672256.0 -0.088784176 0.001519073
8696768.0 -0.088768136 0.001537929
8721280.0 -0.088769552 0.001526166
8745792.0 -0.088755648 0.001537635
8770304.0 -0.088738088 0.001559076
8794816.0 -0.088765736 0.001531993
8819328.0 -0.08876912 0.001569055
8843840.0 -0.088753472 0.001548356
8868352.0 -0.08877312 0.00157606
8892864.0 -0.088752688 0.001597995
8917376.0 -0.08876528 0.001596976
8941888.0 -0.088754648 0.001595698
8966400.0 -0.088752184 0.001601261
8990912.0 -0.088756816 0.001619041
9015424.0 -0.088739856 0.001595329
9039936.0 -0.08874492 0.001640989
9064448.0 -0.088752816 0.001631929
9088960.0 -0.088753704 0.001654212
9113472.0 -0.0887422 0.00167331
9137984.0 -0.088760392 0.001655656
9162496.0 -0.08875304 0.001662793
9187008.0 -0.088742256 0.001670476
9211520.0 -0.088756632 0.001679374
9236032.0 -0.088746632 0.001682356
9260544.0 -0.088750792 0.001683715
9285056.0 -0.088737208 0.001710213
9309568.0 -0.088742272 0.00168887
9334080.0 -0.088756816 0.001704882
9358592.0 -0.08874212 0.001714216
9383104.0 -0.088753352 0.001723219
9407616.0 -0.08873896 0.001741627
9432128.0 -0.088752984 0.001731656
9456640.0 -0.088740648 0.001752161
9481152.0 -0.088748408 0.001753247
9505664.0 -0.088746424 0.001751853
9530176.0 -0.088725384 0.001773497
9554688.0 -0.088783128 0.001790345
9579200.0 -0.088751104 0.001769862
9603712.0 -0.08874316 0.00177914
9628224.0 -0.088762376 0.001789604
9652736.0 -0.08873544 0.001786101
9677248.0 -0.08873764 0.001801235
9701760.0 -0.088753592 0.001821596
9726272.0 -0.088736368 0.001827557
9750784.0 -0.088755056 0.001839151
9775296.0 -0.088752176 0.001836695
9799808.0 -0.088746344 0.001844853
9824320.0 -0.088742464 0.001858594
9848832.0 -0.08874564 0.001864525
9873344.0 -0.088749512 0.001872055
9897856.0 -0.088736744 0.001844882
9922368.0 -0.088739712 0.001877584
9946880.0 -0.088733224 0.00187351
9971392.0 -0.088732224 0.001898409
9995904.0 -0.0887438 0.001896434
10020416.0 -0.088730488 0.001890584
10044928.0 -0.088746216 0.001907635
10069440.0 -0.08874044 0.001926583
10093952.0 -0.08872824 0.001925551
10118464.0 -0.088742744 0.001955039
10142976.0 -0.088721304 0.001934641
10167488.0 -0.088740744 0.00195315
10192000.0 -0.088736488 0.001959884
10216512.0 -0.088733176 0.001949022
10241024.0 -0.088726952 0.001973612
10265536.0 -0.08874172 0.001975572
10290048.0 -0.08874412 0.001992494
10314560.0 -0.088731144 0.00199303
10339072.0 -0.088731824 0.001993902
10363584.0 -0.088736568 0.002012996
10388096.0 -0.08872896 0.002001816
10412608.0 -0.08872288 0.002028622
10437120.0 -0.088733568 0.002030706
10461632.0 -0.088748816 0.00203482
10486144.0 -0.088718728 0.002055117
10510656.0 -0.088737624 0.00204237
10535168.0 -0.08873344 0.002073952
10559680.0 -0.088726528 0.002055588
10584192.0 -0.088733928 0.002072323
10608704.0 -0.088726416 0.002083178
10633216.0 -0.088744096 0.002072003
10657728.0 -0.08870648 0.002102933
10682240.0 -0.088742096 0.00210857
10706752.0 -0.0887366 0.002105762
10731264.0 -0.08872228 0.002102272
10755776.0 -0.088733248 0.002105647
10780288.0 -0.088742976 0.002120838
10804800.0 -0.08872252 0.002133698
10829312.0 -0.088759912 0.002139184
10853824.0 -0.088725816 0.002152877
10878336.0 -0.088721536 0.002147546
10902848.0 -0.088746464 0.002154068
10927360.0 -0.088726784 0.002159457
10951872.0 -0.088717976 0.002185782
10976384.0 -0.088710728 0.002177416
11000896.0 -0.08872348 0.002166996
11025408.0 -0.088727256 0.002183222
11049920.0 -0.088714824 0.002201512
11074432.0 -0.088735624 0.002194971
11098944.0 -0.0887116 0.002222709
11123456.0 -0.088723512 0.002228983
11147968.0 -0.088738296 0.002236914
11172480.0 -0.088725968 0.002230162
11196992.0 -0.088715912 0.002263459
11221504.0 -0.088714096 0.00224755
11246016.0 -0.088717224 0.00225017
11270528.0 -0.088723808 0.0022656
11295040.0 -0.088730384 0.002261868
11319552.0 -0.088738136 0.002294008
11344064.0 -0.088729248 0.002290176
11368576.0 -0.088728808 0.002292463
11393088.0 -0.088726 0.002302274
11417600.0 -0.088727712 0.002297575
11442112.0 -0.088725472 0.002304465
11466624.0 -0.088733416 0.002325654
11491136.0 -0.08872604 0.002322973
11515648.0 -0.088705312 0.002338366
11540160.0 -0.08872888 0.002334698
11564672.0 -0.08872388 0.002352719
11589184.0 -0.088711672 0.002362815
11613696.0 -0.088736808 0.002366751
11638208.0 -0.0887318 0.002370261
11662720.0 -0.088694816 0.002373664
11687232.0 -0.08870464 0.002384995
11711744.0 -0.088695352 0.002393456
11736256.0 -0.088716256 0.00239451
11760768.0 -0.08872472 0.002414561
11785280.0 -0.088715136 0.002400596
11809792.0 -0.08872328 0.002423539
11834304.0 -0.088705472 0.002417952
11858816.0 -0.088719464 0.002432972
11883328.0 -0.088718368 0.002444971
11907840.0 -0.088723608 0.002457452
11932352.0 -0.088728736 0.002464093
11956864.0 -0.088708136 0.002469973
11981376.0 -0.088714024 0.002463097
12005888.0 -0.088717144 0.00248004
12030400.0 -0.088724168 0.002496184
12054912.0 -0.088728224 0.002498866
12079424.0 -0.08870924 0.00250096
12103936.0 -0.088719664 0.002493355
12128448.0 -0.088712056 0.002507522
12152960.0 -0.088703512 0.002514319
12177472.0 -0.088736448 0.002518065
12201984.0 -0.088710008 0.002533835
12226496.0 -0.0887206 0.002544123
12251008.0 -0.088717576 0.002546639
12275520.0 -0.088720272 0.002559116
12300032.0 -0.088713232 0.002569082
12324544.0 -0.088711536 0.002557419
12349056.0 -0.088718744 0.002591127
12373568.0 -0.08870964 0.002594635
12398080.0 -0.088726144 0.002593171
12422592.0 -0.088696448 0.002602322
12447104.0 -0.088743712 0.002593478
12471616.0 -0.0887246 0.002611768
12496128.0 -0.088710952 0.002623504
12520640.0 -0.088722432 0.002615648
12545152.0 -0.088711488 0.002635651
12569664.0 -0.08871144 0.002636787
12594176.0 -0.088731496 0.002669568
12618688.0 -0.088698896 0.00264004
12643200.0 -0.088714216 0.002683305
12667712.0 -0.088713872 0.002676943
12692224.0 -0.08870716 0.002667444
12716736.0 -0.088712672 0.002688735
12741248.0 -0.088702952 0.00271058
12765760.0 -0.088713432 0.002698371
12790272.0 -0.088705384 0.002695706
12814784.0 -0.088703792 0.002715478
12839296.0 -0.088684536 0.002727809
12863808.0 -0.088717448 0.002723639
12888320.0 -0.088711328 0.00273831
12912832.0 -0.08870472 0.00274379
12937344.0 -0.0887094 0.002726975
12961856.0 -0.088697048 0.002748186
12986368.0 -0.088719584 0.002766966
13010880.0 -0.088709736 0.00278072
13035392.0 -0.088707168 0.002762615
13059904.0 -0.088715392 0.002777844
13084416.0 -0.088708864 0.002797613
13108928.0 -0.088715392 0.002799773
13133440.0 -0.088725792 0.00279241
13157952.0 -0.088695552 0.002812571
13182464.0 -0.088727752 0.002819193
13206976.0 -0.088696608 0.002826713
13231488.0 -0.088722184 0.002815238
13256000.0 -0.08871716 0.002840934
13280512.0 -0.088702072 0.002832603
13305024.0 -0.088703664 0.002842978
13329536.0 -0.088682552 0.002845062
13354048.0 -0.088701288 0.002855063
13378560.0 -0.088695616 0.00287952
13403072.0 -0.088698592 0.002881839
13427584.0 -0.088722752 0.002873367
13452096.0 -0.08869968 0.002897444
13476608.0 -0.088697248 0.002876991
13501120.0 -0.088706216 0.002913792
13525632.0 -0.088691696 0.002917719
13550144.0 -0.088690848 0.002918671
13574656.0 -0.088697864 0.002921841
13599168.0 -0.088694888 0.002924786
13623680.0 -0.088695368 0.002943535
13648192.0 -0.088693504 0.002959308
13672704.0 -0.088697248 0.002951964
13697216.0 -0.088699824 0.002967057
13721728.0 -0.088688688 0.002960833
13746240.0 -0.088714464 0.002979166
13770752.0 -0.088706856 0.002980014
13795264.0 -0.08870116 0.002985826
13819776.0 -0.08871096 0.002998755
13844288.0 -0.088706296 0.00300178
13868800.0 -0.088687016 0.003031886
13893312.0 -0.088705288 0.003012879
13917824.0 -0.08870484 0.003021359
13942336.0 -0.088692512 0.003041017
13966848.0 -0.088686096 0.003009492
13991360.0 -0.088703416 0.003052965
14015872.0 -0.088687 0.003063643
14040384.0 -0.088698016 0.00307657
14064896.0 -0.088686136 0.003061585
14089408.0 -0.08870532 0.003056044
14113920.0 -0.088704472 0.00308414
14138432.0 -0.088694488 0.003083272
14162944.0 -0.088694424 0.003102984
14187456.0 -0.088676784 0.003090621
14211968.0 -0.088709136 0.003107085
14236480.0 -0.088699728 0.003110537
14260992.0 -0.08867636 0.003115049
14285504.0 -0.088699712 0.003127072
14310016.0 -0.088693768 0.003125733
14334528.0 -0.088708128 0.003136935
14359040.0 -0.088702504 0.003153046
14383552.0 -0.088682408 0.00314622
14408064.0 -0.088673592 0.00316277
14432576.0 -0.08867672 0.003161918
14457088.0 -0.0887118 0.003178545
14481600.0 -0.088684448 0.003185482
14506112.0 -0.088704232 0.003183649
14530624.0 -0.08868308 0.003202889
14555136.0 -0.088685752 0.003220401
14579648.0 -0.088705096 0.003211222
14604160.0 -0.08869272 0.003217699
14628672.0 -0.088690936 0.003212315
14653184.0 -0.088691664 0.003238711
14677696.0 -0.088679264 0.003242502
14702208.0 -0.088699352 0.003241203
14726720.0 -0.08867084 0.00325124
14751232.0 -0.08868732 0.00325442
14775744.0 -0.088687224 0.003276222
14800256.0 -0.088703632 0.003265886
14824768.0 -0.088692736 0.003289174
14849280.0 -0.088692768 0.003287368
14873792.0 -0.088691504 0.003298129
14898304.0 -0.08867948 0.003293237
