! Created with skrf (http://scikit-rf.org).
# Hz S RI R 50.0 
!freq ReS11 ImS11
1000000.0 -0.006903341 -7.5933e-05
1024500.0 -0.007037482 -0.000178498
1049000.0 -0.007074906 -9.6114e-05
1073500.0 -0.007073821 -0.000141128
1098000.0 -0.007021215 -0.000200687
1122500.0 -0.007006123 -0.000135098
1147000.0 -0.007103903 -8.672e-05
1171500.0 -0.007097527 -0.000139522
1196000.0 -0.007053521 -0.00013165
1220500.0 -0.007091848 -0.000150402
1245000.0 -0.007052749 -0.000115229
1269500.0 -0.007088136 -0.000126354
1294000.0 -0.007121883 -0.000231242
1318500.0 -0.007114917 -0.000206407
1343000.0 -0.007101059 -0.000168224
1367500.0 -0.007148835 -0.000202241
1392000.0 -0.007029676 -0.000154742
1416500.0 -0.007141742 -0.000173856
1441000.0 -0.007101508 -9.4217e-05
1465500.0 -0.007120193 -0.000160075
1490000.0 -0.007097593 -0.000176539
1514500.0 -0.007043225 -0.000177873
1539000.0 -0.007140092 -0.000237385
1563500.0 -0.007091948 -0.000125092
1588000.0 -0.007120103 -0.000137525
1612500.0 -0.007146663 -0.000186168
1637000.0 -0.007114611 -0.000209871
1661500.0 -0.007037616 -0.000170249
1686000.0 -0.007083067 -0.000135196
1710500.0 -0.007065516 -0.000224963
1735000.0 -0.007039334 -0.000167514
1759500.0 -0.007099789 -0.000200963
1784000.0 -0.007071088 -0.000166401
1808500.0 -0.007174723 -0.000232947
1833000.0 -0.007072264 -0.000189721
1857500.0 -0.007104574 -0.000199486
1882000.0 -0.007108989 -0.00021931
1906500.0 -0.007076153 -0.000242196
1931000.0 -0.007121791 -0.00022723
1955500.0 -0.00703595 -0.000227291
1980000.0 -0.007050372 -0.000189007
2004500.0 -0.007042757 -0.000229034
2029000.0 -0.007089827 -0.000222119
2053500.0 -0.00707217 -0.000224017
2078000.0 -0.007050913 -0.000183135
2102500.0 -0.00712081 -0.00021919
2127000.0 -0.007073523 -0.0002106
2151500.0 -0.007073795 -0.000236631
2176000.0 -0.007073329 -0.000219345
2200500.0 -0.00713132 -0.000237431
2225000.0 -0.007119477 -0.000253068
2249500.0 -0.007090842 -0.000277504
2274000.0 -0.007112168 -0.000194923
2298500.0 -0.007082551 -0.00028635
2323000.0 -0.007027946 -0.000321452
2347500.0 -0.007122066 -0.000281317
2372000.0 -0.007064156 -0.00025722
2396500.0 -0.007092692 -0.000308882
2421000.0 -0.007054606 -0.000238829
2445500.0 -0.007074868 -0.000242752
2470000.0 -0.007136428 -0.000281915
2494500.0 -0.007020415 -0.000264618
2519000.0 -0.007101467 -0.000259033
2543500.0 -0.007024003 -0.00031339
2568000.0 -0.00710712 -0.000262959
2592500.0 -0.007153164 -0.000334313
2617000.0 -0.007131037 -0.000369096
2641500.0 -0.007079416 -0.000284216
2666000.0 -0.007137161 -0.000306821
2690500.0 -0.007075123 -0.000296961
2715000.0 -0.007136595 -0.000299199
2739500.0 -0.007117612 -0.00032404
2764000.0 -0.007093182 -0.000256722
2788500.0 -0.007098778 -0.000356001
2813000.0 -0.007074467 -0.000319184
2837500.0 -0.007125338 -0.000276549
2862000.0 -0.0071639 -0.000364883
2886500.0 -0.007114222 -0.000256626
2911000.0 -0.007114869 -0.000271858
2935500.0 -0.007091983 -0.000331718
2960000.0 -0.007084842 -0.000337008
2984500.0 -0.007082611 -0.000314527
3009000.0 -0.007092402 -0.000271777
3033500.0 -0.007109852 -0.000348338
3058000.0 -0.007107194 -0.000359557
3082500.0 -0.007127677 -0.000335293
3107000.0 -0.007030772 -0.000389498
3131500.0 -0.007076808 -0.000352915
3156000.0 -0.007116426 -0.000310296
3180500.0 -0.007118228 -0.000315205
3205000.0 -0.007134613 -0.000351821
3229500.0 -0.007146047 -0.000406665
3254000.0 -0.007076672 -0.000360798
3278500.0 -0.007111212 -0.000338613
3303000.0 -0.007114114 -0.000349917
3327500.0 -0.007090576 -0.000379879
3352000.0 -0.007138667 -0.000355969
3376500.0 -0.007088581 -0.000380506
3401000.0 -0.00707463 -0.000384493
3425500.0 -0.007094605 -0.000364087
3450000.0 -0.007201591 -0.000333929
3474500.0 -0.007182031 -0.000442606
3499000.0 -0.007185755 -0.000438393
3523500.0 -0.007188874 -0.000436843
3548000.0 -0.007191598 -0.000374916
3572500.0 -0.007252577 -0.000368834
3597000.0 -0.007121768 -0.000403642
3621500.0 -0.007224946 -0.00042019
3646000.0 -0.007159284 -0.000391886
3670500.0 -0.00713687 -0.000417346
3695000.0 -0.007194451 -0.000384653
3719500.0 -0.007215053 -0.000404777
3744000.0 -0.007231911 -0.000398821
3768500.0 -0.007207872 -0.00039999
3793000.0 -0.00721331 -0.000454274
3817500.0 -0.007235769 -0.00041331
3842000.0 -0.007193929 -0.000454647
3866500.0 -0.007232672 -0.000501576
3891000.0 -0.007231681 -0.00043232
3915500.0 -0.007231974 -0.000417622
3940000.0 -0.007224141 -0.00044797
3964500.0 -0.007155274 -0.000430916
3989000.0 -0.007183809 -0.000456321
4013500.0 -0.007198707 -0.000425447
4038000.0 -0.007205407 -0.000457982
4062500.0 -0.007211906 -0.000475388
4087000.0 -0.007212984 -0.00049366
4111500.0 -0.007158329 -0.000412106
4136000.0 -0.007298603 -0.000509641
4160500.0 -0.007183459 -0.000507294
4185000.0 -0.007171282 -0.000514346
4209500.0 -0.00725761 -0.000483882
4234000.0 -0.007184383 -0.000483389
4258500.0 -0.007229097 -0.000486703
4283000.0 -0.007233001 -0.000495492
4307500.0 -0.007258092 -0.000441753
4332000.0 -0.007252387 -0.000485807
4356500.0 -0.007219466 -0.000537027
4381000.0 -0.00726676 -0.000498598
4405500.0 -0.007211074 -0.000538672
4430000.0 -0.007209501 -0.000494625
4454500.0 -0.007226345 -0.000498056
4479000.0 -0.007197455 -0.000517187
4503500.0 -0.007167982 -0.000501394
4528000.0 -0.007223564 -0.000488703
4552500.0 -0.007249447 -0.000599269
4577000.0 -0.007224496 -0.000525409
4601500.0 -0.007242324 -0.000541204
4626000.0 -0.007198084 -0.000489141
4650500.0 -0.007200553 -0.000510251
4675000.0 -0.007220201 -0.000583409
4699500.0 -0.007227359 -0.00050052
4724000.0 -0.007201672 -0.000491805
4748500.0 -0.00725488 -0.000500465
4773000.0 -0.00723422 -0.000572396
4797500.0 -0.007268941 -0.000553793
4822000.0 -0.007187317 -0.000528449
4846500.0 -0.007207498 -0.000583697
4871000.0 -0.007282234 -0.000523862
4895500.0 -0.007160604 -0.000609285
4920000.0 -0.007240298 -0.000575935
4944500.0 -0.007181102 -0.000603602
4969000.0 -0.007233632 -0.000554689
4993500.0 -0.007287713 -0.000610031
5018000.0 -0.007206115 -0.000596443
5042500.0 -0.007219746 -0.000537261
5067000.0 -0.007267923 -0.00065469
5091500.0 -0.007210613 -0.000579556
5116000.0 -0.007275887 -0.000564199
5140500.0 -0.007242792 -0.000579979
5165000.0 -0.007265056 -0.000564981
5189500.0 -0.007225535 -0.000617863
5214000.0 -0.007205649 -0.000573566
5238500.0 -0.007246471 -0.000629549
5263000.0 -0.007224311 -0.00057731
5287500.0 -0.007269349 -0.000615881
5312000.0 -0.007263809 -0.000590604
5336500.0 -0.00721176 -0.000630843
5361000.0 -0.007212562 -0.000670052
5385500.0 -0.007257104 -0.000565511
5410000.0 -0.007237816 -0.000587567
5434500.0 -0.007310227 -0.00063554
5459000.0 -0.007213836 -0.000619564
5483500.0 -0.007230435 -0.000645401
5508000.0 -0.007272356 -0.000623821
5532500.0 -0.007267147 -0.000667114
5557000.0 -0.007208181 -0.000620756
5581500.0 -0.00723619 -0.000651029
5606000.0 -0.00720422 -0.000571794
5630500.0 -0.007238243 -0.000616691
5655000.0 -0.007232208 -0.000589936
5679500.0 -0.007257994 -0.00062847
5704000.0 -0.007217141 -0.000608506
5728500.0 -0.007216122 -0.00065015
5753000.0 -0.00724119 -0.000657427
5777500.0 -0.007238105 -0.000667024
5802000.0 -0.007224688 -0.000627972
5826500.0 -0.007243496 -0.000681896
5851000.0 -0.007232477 -0.000626587
5875500.0 -0.007192095 -0.000626411
5900000.0 -0.007322726 -0.000629255
5924500.0 -0.007285759 -0.000685565
5949000.0 -0.007315785 -0.000580716
5973500.0 -0.007285136 -0.000746321
5998000.0 -0.007292901 -0.000665986
6022500.0 -0.007270953 -0.000654415
6047000.0 -0.007273945 -0.000674015
6071500.0 -0.007327844 -0.000685172
6096000.0 -0.007261186 -0.000633262
6120500.0 -0.007326715 -0.000660985
6145000.0 -0.007273459 -0.000672573
6169500.0 -0.007315463 -0.00068826
6194000.0 -0.007344285 -0.000733972
6218500.0 -0.007302244 -0.000668894
6243000.0 -0.007330435 -0.000696055
6267500.0 -0.007293688 -0.000624693
6292000.0 -0.007303471 -0.000689143
6316500.0 -0.007315072 -0.000747817
6341000.0 -0.007330576 -0.000720836
6365500.0 -0.007295809 -0.000627002
6390000.0 -0.007290249 -0.000697701
6414500.0 -0.00731642 -0.000780319
6439000.0 -0.007269278 -0.000739115
6463500.0 -0.007354837 -0.000707937
6488000.0 -0.007333381 -0.000694255
6512500.0 -0.007358477 -0.000674339
6537000.0 -0.007324359 -0.000771907
6561500.0 -0.007290403 -0.000705554
6586000.0 -0.007342786 -0.000655559
6610500.0 -0.007312121 -0.000790643
6635000.0 -0.007292134 -0.000707574
6659500.0 -0.007287571 -0.000762744
6684000.0 -0.007295018 -0.000730959
6708500.0 -0.007362037 -0.000708221
6733000.0 -0.007350574 -0.000743739
6757500.0 -0.007281449 -0.000723135
6782000.0 -0.007274902 -0.000792203
6806500.0 -0.007290706 -0.000808467
6831000.0 -0.007265253 -0.00072438
6855500.0 -0.00730737 -0.000748681
6880000.0 -0.007314457 -0.000687412
6904500.0 -0.007337572 -0.000786077
6929000.0 -0.007333865 -0.00078136
6953500.0 -0.007363137 -0.000781568
6978000.0 -0.00737064 -0.000749929
7002500.0 -0.007329976 -0.000775877
7027000.0 -0.007279328 -0.000791027
7051500.0 -0.007286902 -0.000768124
7076000.0 -0.007298929 -0.000798461
7100500.0 -0.007299402 -0.000851435
7125000.0 -0.007269087 -0.000795189
7149500.0 -0.007424173 -0.000774463
7174000.0 -0.007292004 -0.000790913
7198500.0 -0.00733102 -0.000809526
7223000.0 -0.007299911 -0.000739323
7247500.0 -0.007317656 -0.000759481
7272000.0 -0.007329607 -0.000781189
7296500.0 -0.007290345 -0.000775752
7321000.0 -0.007400768 -0.000771522
7345500.0 -0.007346964 -0.000777436
7370000.0 -0.007356529 -0.000811951
7394500.0 -0.007274205 -0.000827353
7419000.0 -0.007310983 -0.00083611
7443500.0 -0.007313885 -0.000795749
7468000.0 -0.007301096 -0.000849784
7492500.0 -0.007323603 -0.000836355
7517000.0 -0.007336836 -0.000832193
7541500.0 -0.007325203 -0.000809236
7566000.0 -0.007335365 -0.000839173
7590500.0 -0.007272172 -0.000871459
7615000.0 -0.007343267 -0.000898327
7639500.0 -0.007355871 -0.000910068
7664000.0 -0.007336166 -0.000860451
7688500.0 -0.007310125 -0.000880833
7713000.0 -0.007344201 -0.000807319
7737500.0 -0.007305354 -0.000864973
7762000.0 -0.007319416 -0.000922792
7786500.0 -0.007317832 -0.000846181
7811000.0 -0.007304309 -0.00087389
7835500.0 -0.007324164 -0.000865069
7860000.0 -0.007276421 -0.000864111
7884500.0 -0.007318657 -0.000810825
7909000.0 -0.007315542 -0.00085954
7933500.0 -0.00736344 -0.000873477
7958000.0 -0.007264659 -0.00094144
7982500.0 -0.007366507 -0.000885632
8007000.0 -0.007359959 -0.000885782
8031500.0 -0.007284135 -0.000861225
8056000.0 -0.007302142 -0.000864703
8080500.0 -0.007285572 -0.000922943
8105000.0 -0.007348882 -0.000822101
8129500.0 -0.007339488 -0.000941849
8154000.0 -0.007293834 -0.000894945
8178500.0 -0.007309573 -0.000937018
8203000.0 -0.007307342 -0.000943238
8227500.0 -0.007317964 -0.000876806
8252000.0 -0.007347241 -0.00094169
8276500.0 -0.007327312 -0.000959095
8301000.0 -0.007340478 -0.000883516
8325500.0 -0.007376779 -0.000923898
8350000.0 -0.007412128 -0.000946806
8374500.0 -0.007394336 -0.000911614
8399000.0 -0.007390751 -0.001017087
8423500.0 -0.007429987 -0.000972529
8448000.0 -0.00741507 -0.000955599
8472500.0 -0.007333115 -0.000936767
8497000.0 -0.007407246 -0.000987164
8521500.0 -0.007420914 -0.000929167
8546000.0 -0.007354344 -0.000968642
8570500.0 -0.007394009 -0.000993238
8595000.0 -0.007388237 -0.000977689
8619500.0 -0.007443205 -0.000958393
8644000.0 -0.007420703 -0.000961256
8668500.0 -0.007418288 -0.00105824
8693000.0 -0.007394638 -0.00097987
8717500.0 -0.00747866 -0.000998885
8742000.0 -0.00742909 -0.000983152
8766500.0 -0.00744975 -0.001017237
8791000.0 -0.007398567 -0.000975722
8815500.0 -0.007382031 -0.000902297
8840000.0 -0.007414766 -0.001035889
8864500.0 -0.007389744 -0.000966298
8889000.0 -0.007389805 -0.000985597
8913500.0 -0.007418403 -0.000945616
8938000.0 -0.007414069 -0.001022335
8962500.0 -0.007461873 -0.001003318
8987000.0 -0.007381784 -0.001023443
9011500.0 -0.007467253 -0.000986954
9036000.0 -0.007469109 -0.000993395
9060500.0 -0.007439819 -0.001011601
9085000.0 -0.007417653 -0.001087723
9109500.0 -0.007481429 -0.000992226
9134000.0 -0.007402925 -0.001086457
9158500.0 -0.007397577 -0.001085039
9183000.0 -0.00742004 -0.001049781
9207500.0 -0.00746559 -0.001068369
9232000.0 -0.007342723 -0.001031343
9256500.0 -0.007441882 -0.001048582
9281000.0 -0.007455929 -0.001075534
9305500.0 -0.007462093 -0.001111063
9330000.0 -0.007478693 -0.001033814
9354500.0 -0.007386346 -0.001099744
9379000.0 -0.007495263 -0.001100972
9403500.0 -0.007386906 -0.001072228
9428000.0 -0.007459829 -0.001078161
9452500.0 -0.007417198 -0.00111771
9477000.0 -0.007438469 -0.00108359
9501500.0 -0.007471728 -0.001079855
9526000.0 -0.007433891 -0.001041816
9550500.0 -0.007466411 -0.001052017
9575000.0 -0.007472854 -0.001141833
9599500.0 -0.007353464 -0.001100315
9624000.0 -0.007369091 -0.001062972
9648500.0 -0.007440089 -0.001067897
9673000.0 -0.007422368 -0.001069913
9697500.0 -0.007430702 -0.001092916
9722000.0 -0.007450884 -0.001147873
9746500.0 -0.007444571 -0.001108364
9771000.0 -0.007414343 -0.001112514
9795500.0 -0.007427089 -0.001118862
9820000.0 -0.007455739 -0.001129979
9844500.0 -0.00745377 -0.001082389
9869000.0 -0.007452003 -0.001098627
9893500.0 -0.007405252 -0.001099359
9918000.0 -0.007477385 -0.001073123
9942500.0 -0.007451958 -0.00106643
9967000.0 -0.007418196 -0.001138077
9991500.0 -0.00745354 -0.001128202
10016000.0 -0.007416662 -0.001111704
10040500.0 -0.007415354 -0.001099797
10065000.0 -0.007497417 -0.001074072
10089500.0 -0.007448732 -0.001132514
10114000.0 -0.007429419 -0.001072805
10138500.0 -0.007483111 -0.001126285
10163000.0 -0.007480448 -0.001135652
10187500.0 -0.007485887 -0.001152998
10212000.0 -0.007488387 -0.00119562
10236500.0 -0.007482158 -0.001156121
10261000.0 -0.0074398 -0.001171152
10285500.0 -0.007391816 -0.001187455
10310000.0 -0.007429327 -0.001064484
10334500.0 -0.00744082 -0.001192321
10359000.0 -0.007513454 -0.001211954
10383500.0 -0.007478918 -0.001152392
10408000.0 -0.007503444 -0.001150864
10432500.0 -0.007491159 -0.001241313
10457000.0 -0.007462415 -0.00114689
10481500.0 -0.007483552 -0.001188626
10506000.0 -0.007484396 -0.001165109
10530500.0 -0.007453216 -0.001221821
10555000.0 -0.007428016 -0.001208668
10579500.0 -0.007426861 -0.001183194
10604000.0 -0.007487309 -0.001166021
10628500.0 -0.00743159 -0.001140086
10653000.0 -0.007450246 -0.001286756
10677500.0 -0.007373298 -0.001214964
10702000.0 -0.007485122 -0.001227529
10726500.0 -0.007453413 -0.001233707
10751000.0 -0.007467674 -0.001258544
10775500.0 -0.007465302 -0.001188484
10800000.0 -0.007535128 -0.001282645
10824500.0 -0.007538041 -0.001240074
10849000.0 -0.00752161 -0.001181227
10873500.0 -0.007563662 -0.001262082
10898000.0 -0.007554772 -0.001152891
10922500.0 -0.007543131 -0.001237784
10947000.0 -0.007550397 -0.001311817
10971500.0 -0.007537404 -0.001214304
10996000.0 -0.007531414 -0.001290368
11020500.0 -0.007579875 -0.001201944
11045000.0 -0.007506933 -0.001243006
11069500.0 -0.007597119 -0.001206057
11094000.0 -0.007545617 -0.001264246
11118500.0 -0.007554081 -0.001235792
11143000.0 -0.007570908 -0.001308038
11167500.0 -0.007519455 -0.001220864
11192000.0 -0.007526944 -0.001266291
11216500.0 -0.007532833 -0.001267794
11241000.0 -0.007555375 -0.001260659
11265500.0 -0.007540712 -0.00134737
11290000.0 -0.007489483 -0.001238726
11314500.0 -0.007563102 -0.00132136
11339000.0 -0.007519681 -0.001270366
11363500.0 -0.00754295 -0.001229653
11388000.0 -0.007521865 -0.001323156
11412500.0 -0.007554446 -0.001275454
11437000.0 -0.0075478 -0.001363421
11461500.0 -0.007521598 -0.001284504
11486000.0 -0.007558817 -0.00127239
11510500.0 -0.007552621 -0.001302569
11535000.0 -0.007539721 -0.001306626
11559500.0 -0.007541051 -0.001279326
11584000.0 -0.007565435 -0.001316725
11608500.0 -0.007543054 -0.001343333
11633000.0 -0.007512383 -0.001347433
11657500.0 -0.007628784 -0.001272399
11682000.0 -0.007578681 -0.001333653
11706500.0 -0.007531123 -0.001380047
11731000.0 -0.007530587 -0.00130232
11755500.0 -0.007578109 -0.001311595
11780000.0 -0.007598939 -0.001293242
11804500.0 -0.007533594 -0.00131017
11829000.0 -0.007546609 -0.001355144
11853500.0 -0.007603328 -0.00139451
11878000.0 -0.007553259 -0.00137746
11902500.0 -0.007620518 -0.001308362
11927000.0 -0.007583971 -0.001392321
11951500.0 -0.007523099 -0.001330928
11976000.0 -0.007548201 -0.00129024
12000500.0 -0.007551393 -0.001382912
12025000.0 -0.007578864 -0.001341563
12049500.0 -0.007638819 -0.001396243
12074000.0 -0.007595845 -0.001391083
12098500.0 -0.007620721 -0.001394859
12123000.0 -0.007593664 -0.001368947
12147500.0 -0.00753075 -0.001402718
12172000.0 -0.007531873 -0.001330666
12196500.0 -0.007535225 -0.001388155
12221000.0 -0.007564015 -0.001388645
12245500.0 -0.007592109 -0.001410398
12270000.0 -0.007549056 -0.001374609
12294500.0 -0.007547025 -0.001411576
12319000.0 -0.007557693 -0.001417451
12343500.0 -0.007547011 -0.001374973
12368000.0 -0.007554866 -0.001342575
12392500.0 -0.007532025 -0.001376828
12417000.0 -0.007578349 -0.001426807
12441500.0 -0.007551641 -0.001385744
12466000.0 -0.007595162 -0.001351683
12490500.0 -0.007571272 -0.001334671
12515000.0 -0.00754969 -0.001447987
12539500.0 -0.007569847 -0.001408083
12564000.0 -0.007615646 -0.001437048
12588500.0 -0.00760806 -0.001370411
12613000.0 -0.007597635 -0.001433027
12637500.0 -0.007627167 -0.001469032
12662000.0 -0.007534705 -0.001423432
12686500.0 -0.00758615 -0.001424683
12711000.0 -0.007599377 -0.001385197
12735500.0 -0.007595695 -0.001423477
12760000.0 -0.007631208 -0.001403988
12784500.0 -0.007617425 -0.001467337
12809000.0 -0.007550683 -0.00147435
12833500.0 -0.007605634 -0.001413183
12858000.0 -0.007603145 -0.001446349
12882500.0 -0.007548057 -0.001471444
12907000.0 -0.007576135 -0.001441756
12931500.0 -0.007586493 -0.001445875
12956000.0 -0.007623181 -0.00151271
12980500.0 -0.007553055 -0.001437782
13005000.0 -0.007587315 -0.001469094
13029500.0 -0.007618945 -0.001524387
13054000.0 -0.007583287 -0.001496016
13078500.0 -0.007577143 -0.001456565
13103000.0 -0.00755309 -0.001481343
13127500.0 -0.007623928 -0.001441348
13152000.0 -0.007589096 -0.001537906
13176500.0 -0.00763089 -0.001464599
13201000.0 -0.007603631 -0.001475008
13225500.0 -0.007611889 -0.001474729
13250000.0 -0.007637509 -0.001474539
13274500.0 -0.00759743 -0.001514259
13299000.0 -0.007573861 -0.001483983
13323500.0 -0.007683712 -0.001485052
13348000.0 -0.00764947 -0.001500686
13372500.0 -0.007562947 -0.001541325
13397000.0 -0.007599221 -0.0014423
13421500.0 -0.007616767 -0.001479845
13446000.0 -0.007683066 -0.001503455
13470500.0 -0.007645257 -0.001481531
13495000.0 -0.007650628 -0.001545401
13519500.0 -0.007680326 -0.001482761
13544000.0 -0.007669257 -0.001488938
13568500.0 -0.007615007 -0.001531636
13593000.0 -0.007553109 -0.001520426
13617500.0 -0.007660485 -0.001571649
13642000.0 -0.007689661 -0.001529109
13666500.0 -0.007662481 -0.001473629
13691000.0 -0.007614128 -0.001519954
13715500.0 -0.007714079 -0.001537868
13740000.0 -0.007570672 -0.001542747
13764500.0 -0.007673317 -0.001508789
13789000.0 -0.007589964 -0.001505425
13813500.0 -0.007721118 -0.001502065
13838000.0 -0.007649548 -0.001535234
13862500.0 -0.007656315 -0.001521627
13887000.0 -0.007695355 -0.001537737
13911500.0 -0.007641646 -0.001542127
13936000.0 -0.007683302 -0.00157613
13960500.0 -0.007679309 -0.001586883
13985000.0 -0.007622869 -0.001580908
14009500.0 -0.007611351 -0.001578788
14034000.0 -0.007692834 -0.001607592
14058500.0 -0.007697934 -0.001544244
14083000.0 -0.007708749 -0.001583766
14107500.0 -0.0076495 -0.001548774
14132000.0 -0.007661895 -0.001556236
14156500.0 -0.00774558 -0.001621322
14181000.0 -0.00763601 -0.00158257
14205500.0 -0.007687775 -0.001551726
14230000.0 -0.007676089 -0.001566777
14254500.0 -0.007685862 -0.00155983
14279000.0 -0.007706071 -0.001617606
14303500.0 -0.007683075 -0.001598452
14328000.0 -0.007674491 -0.001646471
14352500.0 -0.007591748 -0.001600884
14377000.0 -0.007629771 -0.001577785
14401500.0 -0.00760851 -0.001556224
14426000.0 -0.007629425 -0.001624394
14450500.0 -0.007679364 -0.001543767
14475000.0 -0.007685048 -0.001621091
