! Created with skrf (http://scikit-rf.org).
# Hz S RI R 50.0 
!freq ReS11 ImS11
1000000.0 -0.711676736 -0.000495097
1024500.0 -0.71161664 -0.000477376
1049000.0 -0.711644608 -0.000498054
1073500.0 -0.711611328 -0.000381715
1098000.0 -0.711515136 -0.000332938
1122500.0 -0.71156064 -0.000208191
1147000.0 -0.711695168 -0.000213946
1171500.0 -0.711704128 -2.046e-05
1196000.0 -0.711615168 -5.204e-05
1220500.0 -0.711551872 -8.5217e-05
1245000.0 -0.71158848 -2.7145e-05
1269500.0 -0.711683584 6.812e-05
1294000.0 -0.711678912 8.7945e-05
1318500.0 -0.711627392 0.000131619
1343000.0 -0.711554048 0.000293796
1367500.0 -0.711624256 0.000338565
1392000.0 -0.711500928 0.000357247
1416500.0 -0.711561984 0.000385068
1441000.0 -0.711604416 0.000424407
1465500.0 -0.711606976 0.000580227
1490000.0 -0.711566208 0.000608601
1514500.0 -0.711548672 0.000609682
1539000.0 -0.711662208 0.000735424
1563500.0 -0.711728128 0.000789557
1588000.0 -0.71166496 0.000809124
1612500.0 -0.71168064 0.0008881
1637000.0 -0.711746176 0.000842313
1661500.0 -0.711803584 0.000948344
1686000.0 -0.711698112 0.000998344
1710500.0 -0.71179552 0.001067676
1735000.0 -0.711831296 0.001090364
1759500.0 -0.711743616 0.001193327
1784000.0 -0.711767296 0.001232076
1808500.0 -0.711881088 0.001286372
1833000.0 -0.711900224 0.00135762
1857500.0 -0.71192064 0.001323442
1882000.0 -0.711858496 0.001437843
1906500.0 -0.71191424 0.001475617
1931000.0 -0.711909952 0.001582385
1955500.0 -0.711821952 0.001576203
1980000.0 -0.711893056 0.001658137
2004500.0 -0.712024 0.001703044
2029000.0 -0.71192384 0.001737251
2053500.0 -0.712035584 0.001869488
2078000.0 -0.711958912 0.001931954
2102500.0 -0.71200672 0.00186612
2127000.0 -0.712024256 0.001979999
2151500.0 -0.712051008 0.002086625
2176000.0 -0.711989696 0.00215415
2200500.0 -0.712011904 0.002203992
2225000.0 -0.71203168 0.002236521
2249500.0 -0.712102464 0.002228082
2274000.0 -0.712119616 0.002257896
2298500.0 -0.712053248 0.002365614
2323000.0 -0.712217216 0.002447408
2347500.0 -0.712059648 0.002520587
2372000.0 -0.712214208 0.002570246
2396500.0 -0.712189376 0.002570117
2421000.0 -0.712119488 0.002676592
2445500.0 -0.7120848 0.002696209
2470000.0 -0.712154816 0.002798277
2494500.0 -0.712188224 0.002841912
2519000.0 -0.712113344 0.0028442
2543500.0 -0.712132224 0.002957436
2568000.0 -0.71229184 0.003011498
2592500.0 -0.712289344 0.002942563
2617000.0 -0.712276288 0.003070468
2641500.0 -0.712379968 0.003059767
2666000.0 -0.712295232 0.003125092
2690500.0 -0.71242304 0.003258201
2715000.0 -0.712387712 0.003298568
2739500.0 -0.712454208 0.003329087
2764000.0 -0.71241696 0.003368744
2788500.0 -0.712492352 0.003413608
2813000.0 -0.712484224 0.003469533
2837500.0 -0.712522944 0.0034968
2862000.0 -0.712666816 0.003551286
2886500.0 -0.712571584 0.00366397
2911000.0 -0.712652032 0.003770787
2935500.0 -0.712618048 0.003876067
2960000.0 -0.712726016 0.003838254
2984500.0 -0.712660864 0.003892497
3009000.0 -0.71266784 0.003942048
3033500.0 -0.712651136 0.003944814
3058000.0 -0.712671232 0.004050355
3082500.0 -0.712658688 0.003971101
3107000.0 -0.712662528 0.004107169
3131500.0 -0.712690304 0.004239686
3156000.0 -0.712754816 0.004223241
3180500.0 -0.712777472 0.004326036
3205000.0 -0.712748736 0.004342492
3229500.0 -0.712734016 0.00438834
3254000.0 -0.71286112 0.004420838
3278500.0 -0.712875904 0.004477734
3303000.0 -0.712870464 0.004520643
3327500.0 -0.712907712 0.004650506
3352000.0 -0.712943232 0.00464208
3376500.0 -0.713097408 0.004706614
3401000.0 -0.713012288 0.004722082
3425500.0 -0.713171648 0.0047233
3450000.0 -0.72582592 0.004936301
3474500.0 -0.72587296 0.005054319
3499000.0 -0.72600576 0.005022337
3523500.0 -0.726173312 0.00508911
3548000.0 -0.726246272 0.00515603
3572500.0 -0.726565504 0.005136962
3597000.0 -0.726596864 0.005236173
3621500.0 -0.726552576 0.005290617
3646000.0 -0.726610368 0.005357126
3670500.0 -0.726775168 0.005390185
3695000.0 -0.726855424 0.005457829
3719500.0 -0.726986816 0.00556623
3744000.0 -0.727002176 0.005604098
3768500.0 -0.726997824 0.005633134
3793000.0 -0.72713728 0.005719078
3817500.0 -0.727137216 0.005736211
3842000.0 -0.72716288 0.005753613
3866500.0 -0.727115456 0.005879431
3891000.0 -0.727127936 0.005893016
3915500.0 -0.72722656 0.006014132
3940000.0 -0.727224576 0.006061534
3964500.0 -0.727189952 0.006065158
3989000.0 -0.7272704 0.006111287
4013500.0 -0.727353024 0.006163961
4038000.0 -0.727283904 0.006235615
4062500.0 -0.727356224 0.006249262
4087000.0 -0.727283264 0.006276095
4111500.0 -0.72727392 0.006445715
4136000.0 -0.727267328 0.006346748
4160500.0 -0.727246016 0.006391609
4185000.0 -0.727244416 0.006580226
4209500.0 -0.727260416 0.006573342
4234000.0 -0.727238208 0.006651449
4258500.0 -0.727258368 0.006702465
4283000.0 -0.727344192 0.006734981
4307500.0 -0.72729344 0.006775868
4332000.0 -0.727359104 0.006876141
4356500.0 -0.727468096 0.006871937
4381000.0 -0.727556928 0.006970123
4405500.0 -0.727673664 0.007003216
4430000.0 -0.727697728 0.007095385
4454500.0 -0.72775584 0.00713994
4479000.0 -0.72789472 0.007175525
4503500.0 -0.727832832 0.007220276
4528000.0 -0.727956352 0.007266863
4552500.0 -0.72803776 0.007364662
4577000.0 -0.728158848 0.007444938
4601500.0 -0.728360768 0.007465051
4626000.0 -0.72834048 0.007459597
4650500.0 -0.728401152 0.007553942
4675000.0 -0.728565504 0.007589115
4699500.0 -0.728526208 0.007613776
4724000.0 -0.72858048 0.007605744
4748500.0 -0.728563648 0.007692833
4773000.0 -0.728593408 0.007678545
4797500.0 -0.728580096 0.007860133
4822000.0 -0.728491904 0.007932183
4846500.0 -0.728528576 0.007927892
4871000.0 -0.728607168 0.008054668
4895500.0 -0.728608064 0.008034867
4920000.0 -0.728475584 0.008110747
4944500.0 -0.72859104 0.00820264
4969000.0 -0.72858752 0.008172265
4993500.0 -0.728474944 0.008284258
5018000.0 -0.728383616 0.0083488
5042500.0 -0.728356992 0.008421601
5067000.0 -0.728369792 0.008357443
5091500.0 -0.728292864 0.008545163
5116000.0 -0.728329728 0.008451748
5140500.0 -0.7281824 0.008584342
5165000.0 -0.728213696 0.008560028
5189500.0 -0.728143808 0.00866872
5214000.0 -0.728180416 0.008724573
5238500.0 -0.728117248 0.00873692
5263000.0 -0.728144192 0.008852066
5287500.0 -0.728281536 0.008944356
5312000.0 -0.728356288 0.008925477
5336500.0 -0.728550464 0.008993019
5361000.0 -0.728627584 0.009036402
5385500.0 -0.728783936 0.00911712
5410000.0 -0.728902912 0.009155231
5434500.0 -0.729049984 0.009210337
5459000.0 -0.729034944 0.00911904
5483500.0 -0.729070336 0.009315431
5508000.0 -0.729034048 0.009346273
5532500.0 -0.729166016 0.009452047
5557000.0 -0.729195328 0.009447182
5581500.0 -0.729291264 0.009499837
5606000.0 -0.729358592 0.0095573
5630500.0 -0.72951904 0.009608972
5655000.0 -0.729694912 0.009739141
5679500.0 -0.729690112 0.009756223
5704000.0 -0.72987488 0.009811097
5728500.0 -0.729898944 0.009865635
5753000.0 -0.730005696 0.0099278
5777500.0 -0.730124288 0.009924593
5802000.0 -0.730185216 0.01003074
5826500.0 -0.730326528 0.010067387
5851000.0 -0.73028768 0.010152249
5875500.0 -0.730419392 0.010101311
5900000.0 -0.741318656 0.010321889
5924500.0 -0.74131776 0.010454716
5949000.0 -0.741382272 0.010572871
5973500.0 -0.741474816 0.010625644
5998000.0 -0.741584256 0.010672803
6022500.0 -0.741675648 0.010686767
6047000.0 -0.741658816 0.01069672
6071500.0 -0.741685312 0.010812611
6096000.0 -0.741782912 0.010955826
6120500.0 -0.74193152 0.010839335
6145000.0 -0.74184128 0.01096416
6169500.0 -0.741884352 0.010989959
6194000.0 -0.741837248 0.010978652
6218500.0 -0.741805376 0.011053192
6243000.0 -0.741857984 0.011193145
6267500.0 -0.741894656 0.011189821
6292000.0 -0.74183456 0.011230669
6316500.0 -0.741887936 0.011289789
6341000.0 -0.742000832 0.011434801
6365500.0 -0.742014016 0.011449362
6390000.0 -0.741968832 0.011424424
6414500.0 -0.741953344 0.011485229
6439000.0 -0.741871232 0.011603662
6463500.0 -0.741819008 0.011625984
6488000.0 -0.741801152 0.011657171
6512500.0 -0.741824 0.011748776
6537000.0 -0.741877952 0.011764315
6561500.0 -0.741814336 0.011845621
6586000.0 -0.741965504 0.011905946
6610500.0 -0.74189408 0.012023971
6635000.0 -0.741922944 0.011969606
6659500.0 -0.742045184 0.011992813
6684000.0 -0.74206688 0.012088957
6708500.0 -0.742210624 0.012182106
6733000.0 -0.742137216 0.012238958
6757500.0 -0.742164928 0.012203981
6782000.0 -0.742169344 0.012316009
6806500.0 -0.742264512 0.012248685
6831000.0 -0.742273408 0.012417986
6855500.0 -0.742373376 0.012492803
6880000.0 -0.742445568 0.012577527
6904500.0 -0.742610624 0.012633174
6929000.0 -0.742714944 0.012744761
6953500.0 -0.742813248 0.012675598
6978000.0 -0.742706176 0.012725324
7002500.0 -0.74289376 0.012919448
7027000.0 -0.743264832 0.012884655
7051500.0 -0.743158912 0.012959434
7076000.0 -0.743283456 0.01301699
7100500.0 -0.743287552 0.013055754
7125000.0 -0.743371968 0.013074778
7149500.0 -0.743412288 0.013095283
7174000.0 -0.74365184 0.013136945
7198500.0 -0.743792896 0.013215766
7223000.0 -0.743916992 0.013354481
7247500.0 -0.74407968 0.013327266
7272000.0 -0.744067584 0.013476261
7296500.0 -0.744359808 0.013486888
7321000.0 -0.744401792 0.013523784
7345500.0 -0.744546944 0.013555654
7370000.0 -0.744613056 0.01374422
7394500.0 -0.744862784 0.013682306
7419000.0 -0.744859712 0.013711423
7443500.0 -0.7448608 0.013808284
7468000.0 -0.744947968 0.013914201
7492500.0 -0.745136256 0.013940899
7517000.0 -0.745271296 0.01399293
7541500.0 -0.745340736 0.01389977
7566000.0 -0.74539584 0.013989857
7590500.0 -0.745550208 0.014147232
7615000.0 -0.745658944 0.014131914
7639500.0 -0.7458176 0.014256821
7664000.0 -0.745852288 0.014271408
7688500.0 -0.745958592 0.014418662
7713000.0 -0.74594048 0.01446707
7737500.0 -0.745990464 0.014494086
7762000.0 -0.746106624 0.01455987
7786500.0 -0.746248512 0.014554004
7811000.0 -0.74641056 0.014584416
7835500.0 -0.746615616 0.014623318
7860000.0 -0.746621248 0.014645539
7884500.0 -0.746757888 0.014803875
7909000.0 -0.746851264 0.01474495
7933500.0 -0.746903616 0.014849072
7958000.0 -0.74700352 0.014950303
7982500.0 -0.747069568 0.014935949
8007000.0 -0.747180288 0.015045828
8031500.0 -0.747172672 0.015132097
8056000.0 -0.747336512 0.015188992
8080500.0 -0.74737344 0.015255985
8105000.0 -0.747465664 0.015283022
8129500.0 -0.747573632 0.01535161
8154000.0 -0.747672576 0.015420802
8178500.0 -0.747785216 0.01544801
8203000.0 -0.747813696 0.015439649
8227500.0 -0.747925568 0.015492471
8252000.0 -0.747916416 0.015520586
8276500.0 -0.748020864 0.015646833
8301000.0 -0.748095296 0.015720459
8325500.0 -0.74817664 0.015639475
8350000.0 -0.7579872 0.016025583
8374500.0 -0.757886784 0.016055326
8399000.0 -0.757925376 0.016184632
8423500.0 -0.758024128 0.016234024
8448000.0 -0.757931264 0.016220216
8472500.0 -0.757964032 0.01629985
8497000.0 -0.757969408 0.016366829
8521500.0 -0.757994816 0.016392831
8546000.0 -0.757919936 0.016479079
8570500.0 -0.757988544 0.016466873
8595000.0 -0.75798816 0.016526232
8619500.0 -0.757981824 0.016659812
8644000.0 -0.757832128 0.016755615
8668500.0 -0.757869056 0.0166908
8693000.0 -0.757978752 0.01686485
8717500.0 -0.757877376 0.016832626
8742000.0 -0.757877376 0.016837594
8766500.0 -0.757924352 0.017024626
8791000.0 -0.758020672 0.01709656
8815500.0 -0.758003712 0.017122548
8840000.0 -0.758010624 0.017181274
8864500.0 -0.758002432 0.017193206
8889000.0 -0.758078208 0.017217496
8913500.0 -0.7580736 0.017176034
8938000.0 -0.758005056 0.017388638
8962500.0 -0.758030656 0.017370326
8987000.0 -0.7581456 0.017471686
9011500.0 -0.758172032 0.017492224
9036000.0 -0.758055936 0.017543464
9060500.0 -0.758191424 0.017689588
9085000.0 -0.758212544 0.017706154
9109500.0 -0.758332608 0.017715786
9134000.0 -0.758399104 0.017833894
9158500.0 -0.758360384 0.017868724
9183000.0 -0.75836448 0.01786854
9207500.0 -0.758379136 0.017989442
9232000.0 -0.75845312 0.017907376
9256500.0 -0.758493568 0.018014466
9281000.0 -0.758392384 0.018023466
9305500.0 -0.758428608 0.018195112
9330000.0 -0.758428672 0.0181274
9354500.0 -0.758393792 0.018261538
9379000.0 -0.758446592 0.01826168
9403500.0 -0.758545792 0.018369342
9428000.0 -0.758565376 0.018394796
9452500.0 -0.75859616 0.018481068
9477000.0 -0.758545664 0.018469504
9501500.0 -0.75863008 0.018567078
9526000.0 -0.758672256 0.01868802
9550500.0 -0.758663744 0.01860975
9575000.0 -0.758785408 0.018728302
9599500.0 -0.75879904 0.01875965
9624000.0 -0.758765888 0.018897544
9648500.0 -0.7589472 0.018959674
9673000.0 -0.75889728 0.018975124
9697500.0 -0.759066176 0.019045764
9722000.0 -0.758998976 0.019065144
9746500.0 -0.759085312 0.01909624
9771000.0 -0.759236736 0.019125198
9795500.0 -0.759256 0.019189834
9820000.0 -0.759293376 0.01930109
9844500.0 -0.75931872 0.019362102
9869000.0 -0.759318976 0.019358468
9893500.0 -0.759340224 0.019499136
9918000.0 -0.759503488 0.0195811
9942500.0 -0.759444032 0.019603978
9967000.0 -0.75950176 0.01963174
9991500.0 -0.759622976 0.019678104
10016000.0 -0.759650432 0.019775822
10040500.0 -0.759669888 0.019793532
10065000.0 -0.7597472 0.019771928
10089500.0 -0.759766848 0.01988926
10114000.0 -0.759869824 0.019955834
10138500.0 -0.75995168 0.020025908
10163000.0 -0.75998592 0.020073972
10187500.0 -0.7599904 0.020176676
10212000.0 -0.760022144 0.02013718
10236500.0 -0.760062784 0.020244346
10261000.0 -0.760050304 0.0202938
10285500.0 -0.76012992 0.020393946
10310000.0 -0.7601472 0.020398
10334500.0 -0.760204928 0.020398238
10359000.0 -0.760241088 0.020537494
10383500.0 -0.760198784 0.020571914
10408000.0 -0.760292928 0.020628748
10432500.0 -0.7604112 0.02073781
10457000.0 -0.760363904 0.020724398
10481500.0 -0.76035872 0.02078098
10506000.0 -0.760387776 0.020779104
10530500.0 -0.760441472 0.020835614
10555000.0 -0.760465472 0.020971452
10579500.0 -0.760378304 0.020939384
10604000.0 -0.760417024 0.021067634
10628500.0 -0.760462912 0.020971216
10653000.0 -0.760490048 0.021094726
10677500.0 -0.760419776 0.02125998
10702000.0 -0.760443968 0.021259974
10726500.0 -0.760525376 0.021219032
10751000.0 -0.760449536 0.02125174
10775500.0 -0.760495872 0.021358518
10800000.0 -0.766648896 0.021678248
10824500.0 -0.766592384 0.02179474
10849000.0 -0.76663424 0.02185826
10873500.0 -0.766560384 0.0218211
10898000.0 -0.766588672 0.021951508
10922500.0 -0.76664768 0.021930178
10947000.0 -0.766650624 0.021964534
10971500.0 -0.76663968 0.022030132
10996000.0 -0.766580928 0.022127014
11020500.0 -0.766598592 0.022097172
11045000.0 -0.766716288 0.022208954
11069500.0 -0.766574912 0.022116954
11094000.0 -0.76673152 0.022349456
11118500.0 -0.76677696 0.02239517
11143000.0 -0.766733696 0.02245211
11167500.0 -0.766758016 0.022526082
11192000.0 -0.766840256 0.022500966
11216500.0 -0.766826816 0.022565204
11241000.0 -0.766933184 0.022604232
11265500.0 -0.766894208 0.022671414
11290000.0 -0.766934528 0.022741038
11314500.0 -0.766941376 0.022762804
11339000.0 -0.766816384 0.022819852
11363500.0 -0.766926784 0.022961678
11388000.0 -0.766924608 0.02294408
11412500.0 -0.76687872 0.023086588
11437000.0 -0.766944512 0.023032392
11461500.0 -0.766909248 0.023113374
11486000.0 -0.766902848 0.023121726
11510500.0 -0.76702048 0.023201542
11535000.0 -0.767049152 0.023254982
11559500.0 -0.767026752 0.023220798
11584000.0 -0.767027136 0.023405498
11608500.0 -0.766978496 0.023504362
11633000.0 -0.767011136 0.023395784
11657500.0 -0.767018944 0.023486418
11682000.0 -0.766920448 0.02357399
11706500.0 -0.766952 0.023651348
11731000.0 -0.766984064 0.023666294
11755500.0 -0.766934464 0.023695058
11780000.0 -0.766942976 0.023748796
11804500.0 -0.766929664 0.023772364
11829000.0 -0.766897792 0.02391446
11853500.0 -0.767054592 0.023899914
11878000.0 -0.766949248 0.024054126
11902500.0 -0.766926976 0.024094456
11927000.0 -0.76690912 0.0240398
11951500.0 -0.766864576 0.024193292
11976000.0 -0.766862592 0.024312282
12000500.0 -0.766919936 0.024274162
12025000.0 -0.766735616 0.024331108
12049500.0 -0.766848128 0.024316822
12074000.0 -0.76681664 0.024398854
12098500.0 -0.766821504 0.024460598
12123000.0 -0.7667952 0.024530084
12147500.0 -0.766879552 0.024583592
12172000.0 -0.766747328 0.024635062
12196500.0 -0.76685792 0.024690636
12221000.0 -0.76675328 0.024757696
12245500.0 -0.766820928 0.024886002
12270000.0 -0.766813952 0.024867356
12294500.0 -0.766821568 0.02495472
12319000.0 -0.76688 0.024936742
12343500.0 -0.766888384 0.025158996
12368000.0 -0.766767872 0.025128288
12392500.0 -0.766767488 0.025094016
12417000.0 -0.7667808 0.02507915
12441500.0 -0.766877952 0.025220544
12466000.0 -0.7668592 0.02523629
12490500.0 -0.766867008 0.025291042
12515000.0 -0.766787328 0.025366512
12539500.0 -0.766749184 0.025543226
12564000.0 -0.766849152 0.02544817
12588500.0 -0.7669152 0.025537182
12613000.0 -0.766917696 0.025719734
12637500.0 -0.766876864 0.025727302
12662000.0 -0.766828864 0.025736314
12686500.0 -0.766816 0.025796552
12711000.0 -0.766869696 0.025845152
12735500.0 -0.766784256 0.025851192
12760000.0 -0.766857344 0.025861874
12784500.0 -0.766839168 0.025999744
12809000.0 -0.7668128 0.026065326
12833500.0 -0.76670464 0.026122436
12858000.0 -0.766704768 0.026160178
12882500.0 -0.766716288 0.026195266
12907000.0 -0.766785216 0.026219884
12931500.0 -0.766721664 0.026341166
12956000.0 -0.766755584 0.02643029
12980500.0 -0.766668352 0.026395896
13005000.0 -0.766669376 0.026509256
13029500.0 -0.766595904 0.026579908
13054000.0 -0.766580864 0.026610658
13078500.0 -0.766629056 0.026676606
13103000.0 -0.766637888 0.026680876
13127500.0 -0.766581568 0.02676095
13152000.0 -0.766587392 0.02678097
13176500.0 -0.766583808 0.026782744
13201000.0 -0.766581568 0.02689743
13225500.0 -0.766661952 0.027002054
13250000.0 -0.77028224 0.02719257
13274500.0 -0.770365568 0.027166692
13299000.0 -0.77031712 0.027299754
13323500.0 -0.770342784 0.027453156
13348000.0 -0.770358784 0.027486224
13372500.0 -0.770279552 0.027536902
13397000.0 -0.770380288 0.027510478
13421500.0 -0.770416128 0.027558058
13446000.0 -0.770375936 0.027742422
13470500.0 -0.770412736 0.027543772
13495000.0 -0.770396544 0.027767204
13519500.0 -0.770369024 0.027719642
13544000.0 -0.770412096 0.027870292
13568500.0 -0.7703136 0.027948148
13593000.0 -0.770483968 0.028007718
13617500.0 -0.770485696 0.02798658
13642000.0 -0.770628416 0.028162016
13666500.0 -0.77068064 0.02813134
13691000.0 -0.770598208 0.028160344
13715500.0 -0.770597888 0.028170086
13740000.0 -0.770673408 0.028415818
13764500.0 -0.770674048 0.0283569
13789000.0 -0.770597824 0.028365222
13813500.0 -0.770630272 0.028412524
13838000.0 -0.770657856 0.028516654
13862500.0 -0.770720192 0.028623636
13887000.0 -0.770766528 0.02871336
13911500.0 -0.770802944 0.02867348
13936000.0 -0.770825792 0.028622078
13960500.0 -0.77075456 0.0288158
13985000.0 -0.770755648 0.02891151
14009500.0 -0.770815424 0.028985456
14034000.0 -0.770815296 0.02894103
14058500.0 -0.770859584 0.02903427
14083000.0 -0.770809472 0.029137882
14107500.0 -0.770924096 0.029148488
14132000.0 -0.770864832 0.029235342
14156500.0 -0.770872064 0.029207082
14181000.0 -0.770904512 0.029327586
14205500.0 -0.77096576 0.029368548
14230000.0 -0.770807872 0.029398656
14254500.0 -0.770986944 0.029468786
14279000.0 -0.770844288 0.029456884
14303500.0 -0.770951808 0.029602402
14328000.0 -0.770951424 0.029568072
14352500.0 -0.77089824 0.029736278
14377000.0 -0.770988672 0.029848132
14401500.0 -0.770862272 0.029803354
14426000.0 -0.770924096 0.029817596
14450500.0 -0.770948992 0.029818108
14475000.0 -0.77089856 0.029931652
14499500.0 -0.770953024 0.030072338
14524000.0 -0.770939648 0.030030578
14548500.0 -0.770876736 0.030141052
14573000.0 -0.770915648 0.03016935
14597500.0 -0.77087328 0.030265072
14622000.0 -0.770876672 0.03031021
14646500.0 -0.770824704 0.030406502
14671000.0 -0.770966592 0.030383294
14695500.0 -0.770919424 0.030455014
14720000.0 -0.770941504 0.030558742
14744500.0 -0.770972224 0.030555382
14769000.0 -0.770921088 0.030614184
14793500.0 -0.770929728 0.030647652
14818000.0 -0.770960448 0.030698622
14842500.0 -0.770879808 0.030796574
14867000.0 -0.770878656 0.030822866
14891500.0 -0.770867136 0.030931108
14916000.0 -0.770814208 0.030932996
14940500.0 -0.770816256 0.03100779
